Operational data for interface HundredGigE0/0/0/0:

State:
    Administrative state: enabled
    Operational state: Up
    LED state: Green On

Phy:
    Media type: MMF fiber over 10 lane optics (short reach)
    Optics:
        Vendor: CISCO           
        Part number: 800-41495-01    
        Serial number: FBN19122017

MAC address information:
    Operational address: 54a2.741c.3b29
    Burnt-in address: 54a2.741c.3b29
    No unicast addresses in filter
    Operating in multicast promiscuous mode

Autonegotiation disabled.

Operational values:
    Speed: 100Gbps
    Duplex: Full Duplex
    Flowcontrol: None
    Loopback: None (or external)
    MTU: 9216
    MRU: 9216
    Inter-packet gap: standard (12)
    BER monitoring:
        Signal Degrade: 10e-6 (no-alarm)
        Signal Fail: 10e-4 (report-alarm)


Operational data for interface HundredGigE0/0/0/1:

State:
    Administrative state: enabled
    Operational state: Up
    LED state: Green On

Phy:
    Media type: MMF fiber over 10 lane optics (short reach)
    Optics:
        Vendor: CISCO           
        Part number: 800-41495-01    
        Serial number: FBN19092109

MAC address information:
    Operational address: 54a2.741c.3b2a
    Burnt-in address: 54a2.741c.3b2a
    No unicast addresses in filter
    Operating in multicast promiscuous mode

Autonegotiation disabled.

Operational values:
    Speed: 100Gbps
    Duplex: Full Duplex
    Flowcontrol: None
    Loopback: None (or external)
    MTU: 9216
    MRU: 9216
    Inter-packet gap: standard (12)
    BER monitoring:
        Signal Degrade: 10e-6 (no-alarm)
        Signal Fail: 10e-4 (report-alarm)


Operational data for interface HundredGigE0/0/0/2:

State:
    Administrative state: enabled
    Operational state: Up
    LED state: Green On

Phy:
    Media type: MMF fiber over 10 lane optics (short reach)
    Optics:
        Vendor: CISCO           
        Part number: 800-41495-01    
        Serial number: FBN19122019

MAC address information:
    Operational address: 54a2.741c.3b2b
    Burnt-in address: 54a2.741c.3b2b
    No unicast addresses in filter
    Operating in multicast promiscuous mode

Autonegotiation disabled.

Operational values:
    Speed: 100Gbps
    Duplex: Full Duplex
    Flowcontrol: None
    Loopback: None (or external)
    MTU: 9216
    MRU: 9216
    Inter-packet gap: standard (12)
    BER monitoring:
        Signal Degrade: 10e-6 (no-alarm)
        Signal Fail: 10e-4 (report-alarm)


Operational data for interface HundredGigE0/0/0/3:

State:
    Administrative state: disabled
    Operational state: Down (Reason: Link loss or low light, no loopback)
    LED state: Yellow On

Phy:
    Media type: MMF fiber over 10 lane optics (short reach)
    Optics:
        Vendor: CISCO           
        Part number: 800-41495-01    
        Serial number: FBN19122030

MAC address information:
    Operational address: 54a2.741c.3b2c
    Burnt-in address: 54a2.741c.3b2c
    No unicast addresses in filter
    Operating in multicast promiscuous mode

Autonegotiation disabled.

Operational values:
    Speed: 100Gbps
    Duplex: Full Duplex
    Flowcontrol: None
    Loopback: None (or external)
    MTU: 1514
    MRU: 1514
    Inter-packet gap: standard (12)
    BER monitoring:
        Signal Degrade: 10e-6 (no-alarm)
        Signal Fail: 10e-4 (report-alarm)


Operational data for interface HundredGigE0/4/0/0:

State:
    Administrative state: enabled
    Operational state: Up
    LED state: Green On

Phy:
    Media type: MMF fiber over 10 lane optics (short reach)
    Optics:
        Vendor: CISCO           
        Part number: 800-41495-01    
        Serial number: FBN19092110

MAC address information:
    Operational address: 54a2.741c.3c5d
    Burnt-in address: 54a2.741c.3c5d
    No unicast addresses in filter
    Operating in multicast promiscuous mode

Autonegotiation disabled.

Operational values:
    Speed: 100Gbps
    Duplex: Full Duplex
    Flowcontrol: None
    Loopback: None (or external)
    MTU: 9216
    MRU: 9216
    Inter-packet gap: standard (12)
    BER monitoring:
        Signal Degrade: 10e-6 (no-alarm)
        Signal Fail: 10e-4 (report-alarm)


Operational data for interface HundredGigE0/4/0/1:

State:
    Administrative state: enabled
    Operational state: Up
    LED state: Green On

Phy:
    Media type: MMF fiber over 10 lane optics (short reach)
    Optics:
        Vendor: CISCO           
        Part number: 800-41495-01    
        Serial number: FBN19092111

MAC address information:
    Operational address: 54a2.741c.3c5e
    Burnt-in address: 54a2.741c.3c5e
    No unicast addresses in filter
    Operating in multicast promiscuous mode

Autonegotiation disabled.

Operational values:
    Speed: 100Gbps
    Duplex: Full Duplex
    Flowcontrol: None
    Loopback: None (or external)
    MTU: 9216
    MRU: 9216
    Inter-packet gap: standard (12)
    BER monitoring:
        Signal Degrade: 10e-6 (no-alarm)
        Signal Fail: 10e-4 (report-alarm)


Operational data for interface HundredGigE0/4/0/2:

State:
    Administrative state: enabled
    Operational state: Up
    LED state: Green On

Phy:
    Media type: MMF fiber over 10 lane optics (short reach)
    Optics:
        Vendor: CISCO           
        Part number: 800-41495-01    
        Serial number: FBN19122025

MAC address information:
    Operational address: 54a2.741c.3c5f
    Burnt-in address: 54a2.741c.3c5f
    No unicast addresses in filter
    Operating in multicast promiscuous mode

Autonegotiation disabled.

Operational values:
    Speed: 100Gbps
    Duplex: Full Duplex
    Flowcontrol: None
    Loopback: None (or external)
    MTU: 9216
    MRU: 9216
    Inter-packet gap: standard (12)
    BER monitoring:
        Signal Degrade: 10e-6 (no-alarm)
        Signal Fail: 10e-4 (report-alarm)


Operational data for interface HundredGigE0/4/0/3:

State:
    Administrative state: disabled
    Operational state: Down (Reason: Link loss or low light, no loopback)
    LED state: Yellow On

Phy:
    Media type: MMF fiber over 10 lane optics (short reach)
    Optics:
        Vendor: CISCO           
        Part number: 800-41495-01    
        Serial number: FBN19122022

MAC address information:
    Operational address: 54a2.741c.3c60
    Burnt-in address: 54a2.741c.3c60
    No unicast addresses in filter
    Operating in multicast promiscuous mode

Autonegotiation disabled.

Operational values:
    Speed: 100Gbps
    Duplex: Full Duplex
    Flowcontrol: None
    Loopback: None (or external)
    MTU: 1514
    MRU: 1514
    Inter-packet gap: standard (12)
    BER monitoring:
        Signal Degrade: 10e-6 (no-alarm)
        Signal Fail: 10e-4 (report-alarm)


Management information for interface HundredGigE0/0/0/0:

Port number: 0
Bay number: 0
Interface handle: 0x10800a0

Config:
    Auto-negotiation: Configuration not supported (Off)
    Carrier delay (up): 9000 ms
    Carrier delay (down): 50 ms
    Speed: Configuration not supported (100Gbps)
    Duplex: Configuration not supported (Full Duplex)
    Flow Control: Not configured (None)
    IPG: Configuration not supported (standard (12))
    Loopback: Not configured (None)
    MTU: 9216 bytes
    Bandwidth: Not configured
    BER-SD Threshold: Not configured (10e-6)
    BER-SD Report: Not configured (Disabled)
    BER-SF Threshold: Not configured (10e-4)
    BER-SF Report: Not configured (Enabled)
    BER-SF Signal Remote Failure: Not configured (Disabled)

Driver constraints:
    Min MTU: 64 bytes
    Max MTU: 9600 bytes
    Max speed: 100Gbps
    Interface type: HundredGigE
    Management interface: No
    Promiscuous mode: Yes
    Default carrier delay up (auto-neg on): 0 ms
    Default carrier delay down (auto-neg on): 0 ms
    Default carrier delay up (auto-neg off): 0 ms
    Default carrier delay down (auto-neg off): 0 ms
    Allowed config mask: 0xe6b
    BER:
        SD (min - max): (10e-3 - 10e-12)
        SD default: 10e-6
        SF (min - max): (10e-4 - 10e-12)
        SF default: 10e-4

Cached driver state:
    MTU: 9216 bytes
    Burnt-in MAC address: 54a2.741c.3b29

Operational carrier delay:
    Carrier delay (up): 9000 ms
    Carrier delay (down): 50 ms

Not a member of a bundle interface.

Satellite uplink settings:
    Not in satellite uplink (ICL) mode.

Port FSM state:
    Port is enabled, link is up

Complete FSM state:
    Admin up
    Client admin up
    Client admin tx not disabled
    Port enabled
    Port tx enabled
    Hardware link up
IDB interface state information:
    IDB client admin up
    IDB client tx admin up
    IDB error disable not set

0 Unicast MAC Addresses:

0 Multicast MAC Addresses:


Management information for interface HundredGigE0/0/0/1:

Port number: 1
Bay number: 0
Interface handle: 0x10800c0

Config:
    Auto-negotiation: Configuration not supported (Off)
    Carrier delay (up): 9000 ms
    Carrier delay (down): 50 ms
    Speed: Configuration not supported (100Gbps)
    Duplex: Configuration not supported (Full Duplex)
    Flow Control: Not configured (None)
    IPG: Configuration not supported (standard (12))
    Loopback: Not configured (None)
    MTU: 9216 bytes
    Bandwidth: Not configured
    BER-SD Threshold: Not configured (10e-6)
    BER-SD Report: Not configured (Disabled)
    BER-SF Threshold: Not configured (10e-4)
    BER-SF Report: Not configured (Enabled)
    BER-SF Signal Remote Failure: Not configured (Disabled)

Driver constraints:
    Min MTU: 64 bytes
    Max MTU: 9600 bytes
    Max speed: 100Gbps
    Interface type: HundredGigE
    Management interface: No
    Promiscuous mode: Yes
    Default carrier delay up (auto-neg on): 0 ms
    Default carrier delay down (auto-neg on): 0 ms
    Default carrier delay up (auto-neg off): 0 ms
    Default carrier delay down (auto-neg off): 0 ms
    Allowed config mask: 0xe6b
    BER:
        SD (min - max): (10e-3 - 10e-12)
        SD default: 10e-6
        SF (min - max): (10e-4 - 10e-12)
        SF default: 10e-4

Cached driver state:
    MTU: 9216 bytes
    Burnt-in MAC address: 54a2.741c.3b2a

Operational carrier delay:
    Carrier delay (up): 9000 ms
    Carrier delay (down): 50 ms

Not a member of a bundle interface.

Satellite uplink settings:
    Not in satellite uplink (ICL) mode.

Port FSM state:
    Port is enabled, link is up

Complete FSM state:
    Admin up
    Client admin up
    Client admin tx not disabled
    Port enabled
    Port tx enabled
    Hardware link up
IDB interface state information:
    IDB client admin up
    IDB client tx admin up
    IDB error disable not set

0 Unicast MAC Addresses:

0 Multicast MAC Addresses:


Management information for interface HundredGigE0/0/0/2:

Port number: 2
Bay number: 0
Interface handle: 0x10800e0

Config:
    Auto-negotiation: Configuration not supported (Off)
    Carrier delay (up): 9000 ms
    Carrier delay (down): 50 ms
    Speed: Configuration not supported (100Gbps)
    Duplex: Configuration not supported (Full Duplex)
    Flow Control: Not configured (None)
    IPG: Configuration not supported (standard (12))
    Loopback: Not configured (None)
    MTU: 9216 bytes
    Bandwidth: Not configured
    BER-SD Threshold: Not configured (10e-6)
    BER-SD Report: Not configured (Disabled)
    BER-SF Threshold: Not configured (10e-4)
    BER-SF Report: Not configured (Enabled)
    BER-SF Signal Remote Failure: Not configured (Disabled)

Driver constraints:
    Min MTU: 64 bytes
    Max MTU: 9600 bytes
    Max speed: 100Gbps
    Interface type: HundredGigE
    Management interface: No
    Promiscuous mode: Yes
    Default carrier delay up (auto-neg on): 0 ms
    Default carrier delay down (auto-neg on): 0 ms
    Default carrier delay up (auto-neg off): 0 ms
    Default carrier delay down (auto-neg off): 0 ms
    Allowed config mask: 0xe6b
    BER:
        SD (min - max): (10e-3 - 10e-12)
        SD default: 10e-6
        SF (min - max): (10e-4 - 10e-12)
        SF default: 10e-4

Cached driver state:
    MTU: 9216 bytes
    Burnt-in MAC address: 54a2.741c.3b2b

Operational carrier delay:
    Carrier delay (up): 9000 ms
    Carrier delay (down): 50 ms

Not a member of a bundle interface.

Satellite uplink settings:
    Not in satellite uplink (ICL) mode.

Port FSM state:
    Port is enabled, link is up

Complete FSM state:
    Admin up
    Client admin up
    Client admin tx not disabled
    Port enabled
    Port tx enabled
    Hardware link up
IDB interface state information:
    IDB client admin up
    IDB client tx admin up
    IDB error disable not set

0 Unicast MAC Addresses:

0 Multicast MAC Addresses:


Management information for interface HundredGigE0/0/0/3:

Port number: 3
Bay number: 0
Interface handle: 0x1080100

Config:
    Auto-negotiation: Configuration not supported (Off)
    Carrier delay (up): Not configured
    Carrier delay (down): Not configured
    Speed: Configuration not supported (100Gbps)
    Duplex: Configuration not supported (Full Duplex)
    Flow Control: Not configured (None)
    IPG: Configuration not supported (standard (12))
    Loopback: Not configured (None)
    MTU: Not configured
    Bandwidth: Not configured
    BER-SD Threshold: Not configured (10e-6)
    BER-SD Report: Not configured (Disabled)
    BER-SF Threshold: Not configured (10e-4)
    BER-SF Report: Not configured (Enabled)
    BER-SF Signal Remote Failure: Not configured (Disabled)

Driver constraints:
    Min MTU: 64 bytes
    Max MTU: 9600 bytes
    Max speed: 100Gbps
    Interface type: HundredGigE
    Management interface: No
    Promiscuous mode: Yes
    Default carrier delay up (auto-neg on): 0 ms
    Default carrier delay down (auto-neg on): 0 ms
    Default carrier delay up (auto-neg off): 0 ms
    Default carrier delay down (auto-neg off): 0 ms
    Allowed config mask: 0xe6b
    BER:
        SD (min - max): (10e-3 - 10e-12)
        SD default: 10e-6
        SF (min - max): (10e-4 - 10e-12)
        SF default: 10e-4

Cached driver state:
    MTU: 1514 bytes
    Burnt-in MAC address: 54a2.741c.3b2c

Operational carrier delay:
    Carrier delay (up): 0 ms
    Carrier delay (down): 0 ms

Not a member of a bundle interface.

Satellite uplink settings:
    Not in satellite uplink (ICL) mode.

Port FSM state:
    Port is disabled, due to an admin down condition.

Complete FSM state:
    Admin down
    Client admin up
    Client admin tx not disabled
    Port disabled
    Port tx disabled
    Hardware link down
IDB interface state information:
    IDB client admin up
    IDB client tx admin up
    IDB error disable not set

0 Unicast MAC Addresses:

0 Multicast MAC Addresses:


Management information for interface HundredGigE0/4/0/0:

Port number: 0
Bay number: 0
Interface handle: 0x14800a0

Config:
    Auto-negotiation: Configuration not supported (Off)
    Carrier delay (up): 9000 ms
    Carrier delay (down): 50 ms
    Speed: Configuration not supported (100Gbps)
    Duplex: Configuration not supported (Full Duplex)
    Flow Control: Not configured (None)
    IPG: Configuration not supported (standard (12))
    Loopback: Not configured (None)
    MTU: 9216 bytes
    Bandwidth: Not configured
    BER-SD Threshold: Not configured (10e-6)
    BER-SD Report: Not configured (Disabled)
    BER-SF Threshold: Not configured (10e-4)
    BER-SF Report: Not configured (Enabled)
    BER-SF Signal Remote Failure: Not configured (Disabled)

Driver constraints:
    Min MTU: 64 bytes
    Max MTU: 9600 bytes
    Max speed: 100Gbps
    Interface type: HundredGigE
    Management interface: No
    Promiscuous mode: Yes
    Default carrier delay up (auto-neg on): 0 ms
    Default carrier delay down (auto-neg on): 0 ms
    Default carrier delay up (auto-neg off): 0 ms
    Default carrier delay down (auto-neg off): 0 ms
    Allowed config mask: 0xe6b
    BER:
        SD (min - max): (10e-3 - 10e-12)
        SD default: 10e-6
        SF (min - max): (10e-4 - 10e-12)
        SF default: 10e-4

Cached driver state:
    MTU: 9216 bytes
    Burnt-in MAC address: 54a2.741c.3c5d

Operational carrier delay:
    Carrier delay (up): 9000 ms
    Carrier delay (down): 50 ms

Not a member of a bundle interface.

Satellite uplink settings:
    Not in satellite uplink (ICL) mode.

Port FSM state:
    Port is enabled, link is up

Complete FSM state:
    Admin up
    Client admin up
    Client admin tx not disabled
    Port enabled
    Port tx enabled
    Hardware link up
IDB interface state information:
    IDB client admin up
    IDB client tx admin up
    IDB error disable not set

0 Unicast MAC Addresses:

0 Multicast MAC Addresses:


Management information for interface HundredGigE0/4/0/1:

Port number: 1
Bay number: 0
Interface handle: 0x14800c0

Config:
    Auto-negotiation: Configuration not supported (Off)
    Carrier delay (up): 9000 ms
    Carrier delay (down): 50 ms
    Speed: Configuration not supported (100Gbps)
    Duplex: Configuration not supported (Full Duplex)
    Flow Control: Not configured (None)
    IPG: Configuration not supported (standard (12))
    Loopback: Not configured (None)
    MTU: 9216 bytes
    Bandwidth: Not configured
    BER-SD Threshold: Not configured (10e-6)
    BER-SD Report: Not configured (Disabled)
    BER-SF Threshold: Not configured (10e-4)
    BER-SF Report: Not configured (Enabled)
    BER-SF Signal Remote Failure: Not configured (Disabled)

Driver constraints:
    Min MTU: 64 bytes
    Max MTU: 9600 bytes
    Max speed: 100Gbps
    Interface type: HundredGigE
    Management interface: No
    Promiscuous mode: Yes
    Default carrier delay up (auto-neg on): 0 ms
    Default carrier delay down (auto-neg on): 0 ms
    Default carrier delay up (auto-neg off): 0 ms
    Default carrier delay down (auto-neg off): 0 ms
    Allowed config mask: 0xe6b
    BER:
        SD (min - max): (10e-3 - 10e-12)
        SD default: 10e-6
        SF (min - max): (10e-4 - 10e-12)
        SF default: 10e-4

Cached driver state:
    MTU: 9216 bytes
    Burnt-in MAC address: 54a2.741c.3c5e

Operational carrier delay:
    Carrier delay (up): 9000 ms
    Carrier delay (down): 50 ms

Not a member of a bundle interface.

Satellite uplink settings:
    Not in satellite uplink (ICL) mode.

Port FSM state:
    Port is enabled, link is up

Complete FSM state:
    Admin up
    Client admin up
    Client admin tx not disabled
    Port enabled
    Port tx enabled
    Hardware link up
IDB interface state information:
    IDB client admin up
    IDB client tx admin up
    IDB error disable not set

0 Unicast MAC Addresses:

0 Multicast MAC Addresses:


Management information for interface HundredGigE0/4/0/2:

Port number: 2
Bay number: 0
Interface handle: 0x14800e0

Config:
    Auto-negotiation: Configuration not supported (Off)
    Carrier delay (up): 9000 ms
    Carrier delay (down): 50 ms
    Speed: Configuration not supported (100Gbps)
    Duplex: Configuration not supported (Full Duplex)
    Flow Control: Not configured (None)
    IPG: Configuration not supported (standard (12))
    Loopback: Not configured (None)
    MTU: 9216 bytes
    Bandwidth: Not configured
    BER-SD Threshold: Not configured (10e-6)
    BER-SD Report: Not configured (Disabled)
    BER-SF Threshold: Not configured (10e-4)
    BER-SF Report: Not configured (Enabled)
    BER-SF Signal Remote Failure: Not configured (Disabled)

Driver constraints:
    Min MTU: 64 bytes
    Max MTU: 9600 bytes
    Max speed: 100Gbps
    Interface type: HundredGigE
    Management interface: No
    Promiscuous mode: Yes
    Default carrier delay up (auto-neg on): 0 ms
    Default carrier delay down (auto-neg on): 0 ms
    Default carrier delay up (auto-neg off): 0 ms
    Default carrier delay down (auto-neg off): 0 ms
    Allowed config mask: 0xe6b
    BER:
        SD (min - max): (10e-3 - 10e-12)
        SD default: 10e-6
        SF (min - max): (10e-4 - 10e-12)
        SF default: 10e-4

Cached driver state:
    MTU: 9216 bytes
    Burnt-in MAC address: 54a2.741c.3c5f

Operational carrier delay:
    Carrier delay (up): 9000 ms
    Carrier delay (down): 50 ms

Not a member of a bundle interface.

Satellite uplink settings:
    Not in satellite uplink (ICL) mode.

Port FSM state:
    Port is enabled, link is up

Complete FSM state:
    Admin up
    Client admin up
    Client admin tx not disabled
    Port enabled
    Port tx enabled
    Hardware link up
IDB interface state information:
    IDB client admin up
    IDB client tx admin up
    IDB error disable not set

0 Unicast MAC Addresses:

0 Multicast MAC Addresses:


Management information for interface HundredGigE0/4/0/3:

Port number: 3
Bay number: 0
Interface handle: 0x1480100

Config:
    Auto-negotiation: Configuration not supported (Off)
    Carrier delay (up): Not configured
    Carrier delay (down): Not configured
    Speed: Configuration not supported (100Gbps)
    Duplex: Configuration not supported (Full Duplex)
    Flow Control: Not configured (None)
    IPG: Configuration not supported (standard (12))
    Loopback: Not configured (None)
    MTU: Not configured
    Bandwidth: Not configured
    BER-SD Threshold: Not configured (10e-6)
    BER-SD Report: Not configured (Disabled)
    BER-SF Threshold: Not configured (10e-4)
    BER-SF Report: Not configured (Enabled)
    BER-SF Signal Remote Failure: Not configured (Disabled)

Driver constraints:
    Min MTU: 64 bytes
    Max MTU: 9600 bytes
    Max speed: 100Gbps
    Interface type: HundredGigE
    Management interface: No
    Promiscuous mode: Yes
    Default carrier delay up (auto-neg on): 0 ms
    Default carrier delay down (auto-neg on): 0 ms
    Default carrier delay up (auto-neg off): 0 ms
    Default carrier delay down (auto-neg off): 0 ms
    Allowed config mask: 0xe6b
    BER:
        SD (min - max): (10e-3 - 10e-12)
        SD default: 10e-6
        SF (min - max): (10e-4 - 10e-12)
        SF default: 10e-4

Cached driver state:
    MTU: 1514 bytes
    Burnt-in MAC address: 54a2.741c.3c60

Operational carrier delay:
    Carrier delay (up): 0 ms
    Carrier delay (down): 0 ms

Not a member of a bundle interface.

Satellite uplink settings:
    Not in satellite uplink (ICL) mode.

Port FSM state:
    Port is disabled, due to an admin down condition.

Complete FSM state:
    Admin down
    Client admin up
    Client admin tx not disabled
    Port disabled
    Port tx disabled
    Hardware link down
IDB interface state information:
    IDB client admin up
    IDB client tx admin up
    IDB error disable not set

0 Unicast MAC Addresses:

0 Multicast MAC Addresses:



Operational address: 54a2.741c.3b29
Burnt-in address: 54a2.741c.3b29
Administrative state: Up
Operational state: Up

0 HSRP/VRRP MAC addresses

VLAN Ethertype: 0x8100
QinQ Ethertype: 0x88a8
MTP  Ethertype: 0x88e7

2 VLAN UIDB entries
VLAN1   VLAN2      Packet Type Flags      UIDB Result Flags
   0        0          VLAN                  1 VLAN
   0        0               ARPA             1 ARPA



Operational address: 54a2.741c.3b2a
Burnt-in address: 54a2.741c.3b2a
Administrative state: Up
Operational state: Up

0 HSRP/VRRP MAC addresses

VLAN Ethertype: 0x8100
QinQ Ethertype: 0x88a8
MTP  Ethertype: 0x88e7

2 VLAN UIDB entries
VLAN1   VLAN2      Packet Type Flags      UIDB Result Flags
   0        0          VLAN                  2 VLAN
   0        0               ARPA             2 ARPA



Operational address: 54a2.741c.3b2b
Burnt-in address: 54a2.741c.3b2b
Administrative state: Up
Operational state: Up

0 HSRP/VRRP MAC addresses

VLAN Ethertype: 0x8100
QinQ Ethertype: 0x88a8
MTP  Ethertype: 0x88e7

2 VLAN UIDB entries
VLAN1   VLAN2      Packet Type Flags      UIDB Result Flags
   0        0          VLAN                  1 VLAN
   0        0               ARPA             1 ARPA



Operational address: 54a2.741c.3b2c
Burnt-in address: 54a2.741c.3b2c
Administrative state: Forced Local fault
Operational state: Local fault

0 HSRP/VRRP MAC addresses

VLAN Ethertype: 0x8100
QinQ Ethertype: 0x88a8
MTP  Ethertype: 0x88e7

2 VLAN UIDB entries
VLAN1   VLAN2      Packet Type Flags      UIDB Result Flags
   0        0          VLAN                  2 VLAN
   0        0               ARPA             2 ARPA



Operational address: 54a2.741c.3c5d
Burnt-in address: 54a2.741c.3c5d
Administrative state: Up
Operational state: Up

0 HSRP/VRRP MAC addresses

VLAN Ethertype: 0x8100
QinQ Ethertype: 0x88a8
MTP  Ethertype: 0x88e7

2 VLAN UIDB entries
VLAN1   VLAN2      Packet Type Flags      UIDB Result Flags
   0        0          VLAN                  1 VLAN
   0        0               ARPA             1 ARPA



Operational address: 54a2.741c.3c5e
Burnt-in address: 54a2.741c.3c5e
Administrative state: Up
Operational state: Up

0 HSRP/VRRP MAC addresses

VLAN Ethertype: 0x8100
QinQ Ethertype: 0x88a8
MTP  Ethertype: 0x88e7

2 VLAN UIDB entries
VLAN1   VLAN2      Packet Type Flags      UIDB Result Flags
   0        0          VLAN                  2 VLAN
   0        0               ARPA             2 ARPA



Operational address: 54a2.741c.3c5f
Burnt-in address: 54a2.741c.3c5f
Administrative state: Up
Operational state: Up

0 HSRP/VRRP MAC addresses

VLAN Ethertype: 0x8100
QinQ Ethertype: 0x88a8
MTP  Ethertype: 0x88e7

2 VLAN UIDB entries
VLAN1   VLAN2      Packet Type Flags      UIDB Result Flags
   0        0          VLAN                  1 VLAN
   0        0               ARPA             1 ARPA



Operational address: 54a2.741c.3c60
Burnt-in address: 54a2.741c.3c60
Administrative state: Forced Local fault
Operational state: Local fault

0 HSRP/VRRP MAC addresses

VLAN Ethertype: 0x8100
QinQ Ethertype: 0x88a8
MTP  Ethertype: 0x88e7

2 VLAN UIDB entries
VLAN1   VLAN2      Packet Type Flags      UIDB Result Flags
   0        0          VLAN                  2 VLAN
   0        0               ARPA             2 ARPA


PLIM type 0x28 ports=4
PLIM shared mem: hw_init 0x1 ctx version 0x1
Port 0 t100 inst 0 otn_cfg 0 t100 otn 0
    cpak init flag 0x66666666 
    cpak pending oir count 0 
    optics info valid 1
    optics type 0x83
    xcvr   type 0xf7
    xcvr   str 100GBASE-SR10
Maximum CPAK power class supported: 3
Maximum CPAK power consumption supported: 8000 mW

PLIM type 0x28 ports=4
PLIM shared mem: hw_init 0x1 ctx version 0x1
Port 1 t100 inst 1 otn_cfg 0 t100 otn 0
    cpak init flag 0x66666666 
    cpak pending oir count 0 
    optics info valid 1
    optics type 0x83
    xcvr   type 0xf7
    xcvr   str 100GBASE-SR10
Maximum CPAK power class supported: 3
Maximum CPAK power consumption supported: 8000 mW

PLIM type 0x28 ports=4
PLIM shared mem: hw_init 0x1 ctx version 0x1
Port 2 t100 inst 2 otn_cfg 0 t100 otn 0
    cpak init flag 0x66666666 
    cpak pending oir count 0 
    optics info valid 1
    optics type 0x83
    xcvr   type 0xf7
    xcvr   str 100GBASE-SR10
Maximum CPAK power class supported: 3
Maximum CPAK power consumption supported: 8000 mW

PLIM type 0x28 ports=4
PLIM shared mem: hw_init 0x1 ctx version 0x1
Port 3 t100 inst 3 otn_cfg 0 t100 otn 0
    cpak init flag 0x66666666 
    cpak pending oir count 0 
    optics info valid 1
    optics type 0x83
    xcvr   type 0xf7
    xcvr   str 100GBASE-SR10
Maximum CPAK power class supported: 3
Maximum CPAK power consumption supported: 8000 mW

PLIM type 0x28 ports=4
PLIM shared mem: hw_init 0x1 ctx version 0x1
Port 0 t100 inst 0 otn_cfg 0 t100 otn 0
    cpak init flag 0x66666666 
    cpak pending oir count 0 
    optics info valid 1
    optics type 0x83
    xcvr   type 0xf7
    xcvr   str 100GBASE-SR10
Maximum CPAK power class supported: 3
Maximum CPAK power consumption supported: 8000 mW

PLIM type 0x28 ports=4
PLIM shared mem: hw_init 0x1 ctx version 0x1
Port 1 t100 inst 1 otn_cfg 0 t100 otn 0
    cpak init flag 0x66666666 
    cpak pending oir count 0 
    optics info valid 1
    optics type 0x83
    xcvr   type 0xf7
    xcvr   str 100GBASE-SR10
Maximum CPAK power class supported: 3
Maximum CPAK power consumption supported: 8000 mW

PLIM type 0x28 ports=4
PLIM shared mem: hw_init 0x1 ctx version 0x1
Port 2 t100 inst 2 otn_cfg 0 t100 otn 0
    cpak init flag 0x66666666 
    cpak pending oir count 0 
    optics info valid 1
    optics type 0x83
    xcvr   type 0xf7
    xcvr   str 100GBASE-SR10
Maximum CPAK power class supported: 3
Maximum CPAK power consumption supported: 8000 mW

PLIM type 0x28 ports=4
PLIM shared mem: hw_init 0x1 ctx version 0x1
Port 3 t100 inst 3 otn_cfg 0 t100 otn 0
    cpak init flag 0x66666666 
    cpak pending oir count 0 
    optics info valid 1
    optics type 0x83
    xcvr   type 0xf7
    xcvr   str 100GBASE-SR10
Maximum CPAK power class supported: 3
Maximum CPAK power consumption supported: 8000 mW


PCS
  Previous PCS Status: 
    PCS Rx Link Status was UP
    PCS Rx Link was Block Locked
    PCS BER (Sync Header Error) Counts: 0
    PCS BER (BIP) Counts: 0
    PCS BER (BIP) 1 second count: 0 (BER < 10e-9)
    PCS SD-BER Alarm was OFF
    PCS SF-BER Alarm was OFF
  Current PCS Status: 
    PCS Rx Link Status is UP
    PCS Rx Link is Block Locked
    PCS BER (Sync Header Error) Counts: 0
    PCS BER (BIP) Counts: 0
    PCS BER (BIP) 1 second count: 0 (BER < 10e-9)
    PCS SD-BER Alarm is OFF
    PCS SF-BER Alarm is OFF

PCS detailed information:

  RX Service Interface Lane Sync Header Lock Status:

    Lane 0 : Locked
    Lane 1 : Locked
    Lane 2 : Locked
    Lane 3 : Locked
    Lane 4 : Locked
    Lane 5 : Locked
    Lane 6 : Locked
    Lane 7 : Locked
    Lane 8 : Locked
    Lane 9 : Locked

  Mapping of Service Interface Lane and RX PCS Lane:

    Rx Service Interface Lane 0  = PCS Lane 0
    Rx Service Interface Lane 1  = PCS Lane 1
    Rx Service Interface Lane 2  = PCS Lane 2
    Rx Service Interface Lane 3  = PCS Lane 3
    Rx Service Interface Lane 4  = PCS Lane 4
    Rx Service Interface Lane 5  = PCS Lane 5
    Rx Service Interface Lane 6  = PCS Lane 6
    Rx Service Interface Lane 7  = PCS Lane 7
    Rx Service Interface Lane 8  = PCS Lane 8
    Rx Service Interface Lane 9  = PCS Lane 9

  PCS Lane BIP Error Counters:

             Even sublane     Odd sublane
    Lane 0 : 0                0               
    Lane 1 : 0                0               
    Lane 2 : 0                0               
    Lane 3 : 0                0               
    Lane 4 : 0                0               
    Lane 5 : 0                0               
    Lane 6 : 0                0               
    Lane 7 : 0                0               
    Lane 8 : 0                0               
    Lane 9 : 0                0               

  Total PCS Lane BIP Error Count          : 0
  Total PCS Lane Sync Header Error Count  : 0
  Total PCS Lane Bad 64/66 Code Count     : 0

 General Info:
=================


PMA/PMD:
========
  Previous Alarm Status:
      PMA/PMD Rx Link is Up.
      LR4 Ability
      SR10 Ability
  Current Alarm Status:
      PMA/PMD Rx Link is Up.
      LR4 Ability
      SR10 Ability

CPAK section:
=============

Quack check: PASSED

CPAK General Information:

  Module Identifier:         CPAK_10x10G
  Ethernet Application Code: 100GBASE-SR10
  Module State:              Ready
  Power Class:               1
  Maximum Power Consumption: 4600 mW

CPAK Vendor Information:

  Vendor Name:         CISCO           
  Vendor PN:           800-41495-01    
  Vendor SN:           FBN19122017     
  Vendor OUI:          0x0-0x0-0xc
  Lot Code:            
  DATE CODE(YYYY/MM/DD): 2015/03/20
  CPAK MSA Hardware Version:   11.0
  CPAK MSA MDIO Version:       9.0
  Vendor Hardware Version:    0.5
  Vendor Firmware Version:    2.3

CPAK UDI Information:

  UDI Compliant: Yes
  Cisco PID: CPAK-100G-SR10  
  Cisco VID: V01 

CPAK Cisco Information:

  Vendor Name: CISCO           
  Cisco PN   : 800-41495-01  Rev B0  
  Cisco SN   : FBN19122017

CPAK Detail Information:

  Number of lanes supported: 

    Number of network lanes: 10
    Number of host lanes   : 10

  Time required by module: 

    Maximum high-power-up time:   1 s
    Maximum high-power-down time:   1 s
    Maximum tx-turn-on time   :   1 s

    Maximum tx-turn-off time    : 254 ms

  Module general control: 

    Soft reset asserted     : No
    Soft low power asserted : No
    Soft tx disable asserted: No
    Soft program control 3 asserted: No
    Soft program control 2 asserted: No
    Soft program control 1 asserted: No
    Soft global alarm test asserted: No

    Tx disable pin asserted: No
    Low power pin asserted : No
    Program control 3 pin asserted: No
    Program control 2 pin asserted: No
    Program control 1 pin asserted: No

  Module Analog A/D value: 

    Power supply voltage : 3.3040 V
    Temperature          : 27.8658 degC

  Network lane A/D value: 

    Lane 0 Tx power: 0.5442 mW ( -2.6 dBm)
    Lane 1 Tx power: 0.5721 mW ( -2.4 dBm)
    Lane 2 Tx power: 0.5250 mW ( -2.8 dBm)
    Lane 3 Tx power: 0.5631 mW ( -2.5 dBm)
    Lane 4 Tx power: 0.5583 mW ( -2.5 dBm)
    Lane 5 Tx power: 0.6094 mW ( -2.2 dBm)
    Lane 6 Tx power: 0.5844 mW ( -2.3 dBm)
    Lane 7 Tx power: 0.5921 mW ( -2.3 dBm)
    Lane 8 Tx power: 0.5863 mW ( -2.3 dBm)
    Lane 9 Tx power: 0.6094 mW ( -2.2 dBm)

    Lane 0 Rx power: 0.5664 mW ( -2.5 dBm)
    Lane 1 Rx power: 0.5791 mW ( -2.4 dBm)
    Lane 2 Rx power: 0.5990 mW ( -2.2 dBm)
    Lane 3 Rx power: 0.5472 mW ( -2.6 dBm)
    Lane 4 Rx power: 0.4529 mW ( -3.4 dBm)
    Lane 5 Rx power: 0.5097 mW ( -2.9 dBm)
    Lane 6 Rx power: 0.5001 mW ( -3.0 dBm)
    Lane 7 Rx power: 0.4642 mW ( -3.3 dBm)
    Lane 8 Rx power: 0.5543 mW ( -2.6 dBm)
    Lane 9 Rx power: 0.5132 mW ( -2.9 dBm)

    Total Tx power : 5.7443 mW (  7.6 dBm)
    Total Rx power : 5.2861 mW (  7.2 dBm)



PCS
  Previous PCS Status: 
    PCS Rx Link Status was UP
    PCS Rx Link was Block Locked
    PCS BER (Sync Header Error) Counts: 0
    PCS BER (BIP) Counts: 0
    PCS BER (BIP) 1 second count: 0 (BER < 10e-9)
    PCS SD-BER Alarm was OFF
    PCS SF-BER Alarm was OFF
  Current PCS Status: 
    PCS Rx Link Status is UP
    PCS Rx Link is Block Locked
    PCS BER (Sync Header Error) Counts: 0
    PCS BER (BIP) Counts: 0
    PCS BER (BIP) 1 second count: 0 (BER < 10e-9)
    PCS SD-BER Alarm is OFF
    PCS SF-BER Alarm is OFF

PCS detailed information:

  RX Service Interface Lane Sync Header Lock Status:

    Lane 0 : Locked
    Lane 1 : Locked
    Lane 2 : Locked
    Lane 3 : Locked
    Lane 4 : Locked
    Lane 5 : Locked
    Lane 6 : Locked
    Lane 7 : Locked
    Lane 8 : Locked
    Lane 9 : Locked

  Mapping of Service Interface Lane and RX PCS Lane:

    Rx Service Interface Lane 0  = PCS Lane 0
    Rx Service Interface Lane 1  = PCS Lane 1
    Rx Service Interface Lane 2  = PCS Lane 2
    Rx Service Interface Lane 3  = PCS Lane 3
    Rx Service Interface Lane 4  = PCS Lane 4
    Rx Service Interface Lane 5  = PCS Lane 5
    Rx Service Interface Lane 6  = PCS Lane 6
    Rx Service Interface Lane 7  = PCS Lane 7
    Rx Service Interface Lane 8  = PCS Lane 8
    Rx Service Interface Lane 9  = PCS Lane 9

  PCS Lane BIP Error Counters:

             Even sublane     Odd sublane
    Lane 0 : 0                0               
    Lane 1 : 0                0               
    Lane 2 : 0                0               
    Lane 3 : 0                0               
    Lane 4 : 0                0               
    Lane 5 : 0                0               
    Lane 6 : 0                0               
    Lane 7 : 0                0               
    Lane 8 : 0                0               
    Lane 9 : 0                0               

  Total PCS Lane BIP Error Count          : 0
  Total PCS Lane Sync Header Error Count  : 0
  Total PCS Lane Bad 64/66 Code Count     : 0

 General Info:
=================


PMA/PMD:
========
  Previous Alarm Status:
      PMA/PMD Rx Link is Up.
      LR4 Ability
      SR10 Ability
  Current Alarm Status:
      PMA/PMD Rx Link is Up.
      LR4 Ability
      SR10 Ability

CPAK section:
=============

Quack check: PASSED

CPAK General Information:

  Module Identifier:         CPAK_10x10G
  Ethernet Application Code: 100GBASE-SR10
  Module State:              Ready
  Power Class:               1
  Maximum Power Consumption: 4600 mW

CPAK Vendor Information:

  Vendor Name:         CISCO           
  Vendor PN:           800-41495-01    
  Vendor SN:           FBN19092109     
  Vendor OUI:          0x0-0x0-0xc
  Lot Code:            
  DATE CODE(YYYY/MM/DD): 2015/03/05
  CPAK MSA Hardware Version:   11.0
  CPAK MSA MDIO Version:       9.0
  Vendor Hardware Version:    0.5
  Vendor Firmware Version:    2.3

CPAK UDI Information:

  UDI Compliant: Yes
  Cisco PID: CPAK-100G-SR10  
  Cisco VID: V01 

CPAK Cisco Information:

  Vendor Name: CISCO           
  Cisco PN   : 800-41495-01  Rev B0  
  Cisco SN   : FBN19092109

CPAK Detail Information:

  Number of lanes supported: 

    Number of network lanes: 10
    Number of host lanes   : 10

  Time required by module: 

    Maximum high-power-up time:   1 s
    Maximum high-power-down time:   1 s
    Maximum tx-turn-on time   :   1 s

    Maximum tx-turn-off time    : 254 ms

  Module general control: 

    Soft reset asserted     : No
    Soft low power asserted : No
    Soft tx disable asserted: No
    Soft program control 3 asserted: No
    Soft program control 2 asserted: No
    Soft program control 1 asserted: No
    Soft global alarm test asserted: No

    Tx disable pin asserted: No
    Low power pin asserted : No
    Program control 3 pin asserted: No
    Program control 2 pin asserted: No
    Program control 1 pin asserted: No

  Module Analog A/D value: 

    Power supply voltage : 3.2551 V
    Temperature          : 27.4290 degC

  Network lane A/D value: 

    Lane 0 Tx power: 0.5207 mW ( -2.8 dBm)
    Lane 1 Tx power: 0.4755 mW ( -3.2 dBm)
    Lane 2 Tx power: 0.4845 mW ( -3.1 dBm)
    Lane 3 Tx power: 0.4681 mW ( -3.3 dBm)
    Lane 4 Tx power: 0.4810 mW ( -3.2 dBm)
    Lane 5 Tx power: 0.4938 mW ( -3.1 dBm)
    Lane 6 Tx power: 0.5083 mW ( -2.9 dBm)
    Lane 7 Tx power: 0.4852 mW ( -3.1 dBm)
    Lane 8 Tx power: 0.5055 mW ( -3.0 dBm)
    Lane 9 Tx power: 0.4843 mW ( -3.1 dBm)

    Lane 0 Rx power: 0.5521 mW ( -2.6 dBm)
    Lane 1 Rx power: 0.6011 mW ( -2.2 dBm)
    Lane 2 Rx power: 0.6191 mW ( -2.1 dBm)
    Lane 3 Rx power: 0.5469 mW ( -2.6 dBm)
    Lane 4 Rx power: 0.6021 mW ( -2.2 dBm)
    Lane 5 Rx power: 0.5577 mW ( -2.5 dBm)
    Lane 6 Rx power: 0.5638 mW ( -2.5 dBm)
    Lane 7 Rx power: 0.5897 mW ( -2.3 dBm)
    Lane 8 Rx power: 0.6259 mW ( -2.0 dBm)
    Lane 9 Rx power: 0.6124 mW ( -2.1 dBm)

    Total Tx power : 4.9069 mW (  6.9 dBm)
    Total Rx power : 5.8708 mW (  7.7 dBm)



PCS
  Previous PCS Status: 
    PCS Rx Link Status was UP
    PCS Rx Link was Block Locked
    PCS BER (Sync Header Error) Counts: 0
    PCS BER (BIP) Counts: 0
    PCS BER (BIP) 1 second count: 0 (BER < 10e-9)
    PCS SD-BER Alarm was OFF
    PCS SF-BER Alarm was OFF
  Current PCS Status: 
    PCS Rx Link Status is UP
    PCS Rx Link is Block Locked
    PCS BER (Sync Header Error) Counts: 0
    PCS BER (BIP) Counts: 0
    PCS BER (BIP) 1 second count: 0 (BER < 10e-9)
    PCS SD-BER Alarm is OFF
    PCS SF-BER Alarm is OFF

PCS detailed information:

  RX Service Interface Lane Sync Header Lock Status:

    Lane 0 : Locked
    Lane 1 : Locked
    Lane 2 : Locked
    Lane 3 : Locked
    Lane 4 : Locked
    Lane 5 : Locked
    Lane 6 : Locked
    Lane 7 : Locked
    Lane 8 : Locked
    Lane 9 : Locked

  Mapping of Service Interface Lane and RX PCS Lane:

    Rx Service Interface Lane 0  = PCS Lane 0
    Rx Service Interface Lane 1  = PCS Lane 1
    Rx Service Interface Lane 2  = PCS Lane 2
    Rx Service Interface Lane 3  = PCS Lane 3
    Rx Service Interface Lane 4  = PCS Lane 4
    Rx Service Interface Lane 5  = PCS Lane 5
    Rx Service Interface Lane 6  = PCS Lane 6
    Rx Service Interface Lane 7  = PCS Lane 7
    Rx Service Interface Lane 8  = PCS Lane 8
    Rx Service Interface Lane 9  = PCS Lane 9

  PCS Lane BIP Error Counters:

             Even sublane     Odd sublane
    Lane 0 : 0                0               
    Lane 1 : 0                0               
    Lane 2 : 0                0               
    Lane 3 : 0                0               
    Lane 4 : 0                0               
    Lane 5 : 0                0               
    Lane 6 : 0                0               
    Lane 7 : 0                0               
    Lane 8 : 0                0               
    Lane 9 : 0                0               

  Total PCS Lane BIP Error Count          : 0
  Total PCS Lane Sync Header Error Count  : 0
  Total PCS Lane Bad 64/66 Code Count     : 0

 General Info:
=================


PMA/PMD:
========
  Previous Alarm Status:
      PMA/PMD Rx Link is Up.
      LR4 Ability
      SR10 Ability
  Current Alarm Status:
      PMA/PMD Rx Link is Up.
      LR4 Ability
      SR10 Ability

CPAK section:
=============

Quack check: PASSED

CPAK General Information:

  Module Identifier:         CPAK_10x10G
  Ethernet Application Code: 100GBASE-SR10
  Module State:              Ready
  Power Class:               1
  Maximum Power Consumption: 4600 mW

CPAK Vendor Information:

  Vendor Name:         CISCO           
  Vendor PN:           800-41495-01    
  Vendor SN:           FBN19122019     
  Vendor OUI:          0x0-0x0-0xc
  Lot Code:            
  DATE CODE(YYYY/MM/DD): 2015/03/19
  CPAK MSA Hardware Version:   11.0
  CPAK MSA MDIO Version:       9.0
  Vendor Hardware Version:    0.5
  Vendor Firmware Version:    2.3

CPAK UDI Information:

  UDI Compliant: Yes
  Cisco PID: CPAK-100G-SR10  
  Cisco VID: V01 

CPAK Cisco Information:

  Vendor Name: CISCO           
  Cisco PN   : 800-41495-01  Rev B0  
  Cisco SN   : FBN19122019

CPAK Detail Information:

  Number of lanes supported: 

    Number of network lanes: 10
    Number of host lanes   : 10

  Time required by module: 

    Maximum high-power-up time:   1 s
    Maximum high-power-down time:   1 s
    Maximum tx-turn-on time   :   1 s

    Maximum tx-turn-off time    : 254 ms

  Module general control: 

    Soft reset asserted     : No
    Soft low power asserted : No
    Soft tx disable asserted: No
    Soft program control 3 asserted: No
    Soft program control 2 asserted: No
    Soft program control 1 asserted: No
    Soft global alarm test asserted: No

    Tx disable pin asserted: No
    Low power pin asserted : No
    Program control 3 pin asserted: No
    Program control 2 pin asserted: No
    Program control 1 pin asserted: No

  Module Analog A/D value: 

    Power supply voltage : 3.2710 V
    Temperature          : 25.8268 degC

  Network lane A/D value: 

    Lane 0 Tx power: 0.5377 mW ( -2.7 dBm)
    Lane 1 Tx power: 0.5012 mW ( -3.0 dBm)
    Lane 2 Tx power: 0.5002 mW ( -3.0 dBm)
    Lane 3 Tx power: 0.4702 mW ( -3.3 dBm)
    Lane 4 Tx power: 0.5248 mW ( -2.8 dBm)
    Lane 5 Tx power: 0.4907 mW ( -3.1 dBm)
    Lane 6 Tx power: 0.5127 mW ( -2.9 dBm)
    Lane 7 Tx power: 0.4805 mW ( -3.2 dBm)
    Lane 8 Tx power: 0.5319 mW ( -2.7 dBm)
    Lane 9 Tx power: 0.5024 mW ( -3.0 dBm)

    Lane 0 Rx power: 0.4787 mW ( -3.2 dBm)
    Lane 1 Rx power: 0.5329 mW ( -2.7 dBm)
    Lane 2 Rx power: 0.5327 mW ( -2.7 dBm)
    Lane 3 Rx power: 0.5148 mW ( -2.9 dBm)
    Lane 4 Rx power: 0.4681 mW ( -3.3 dBm)
    Lane 5 Rx power: 0.4620 mW ( -3.4 dBm)
    Lane 6 Rx power: 0.5199 mW ( -2.8 dBm)
    Lane 7 Rx power: 0.4814 mW ( -3.2 dBm)
    Lane 8 Rx power: 0.4989 mW ( -3.0 dBm)
    Lane 9 Rx power: 0.4836 mW ( -3.2 dBm)

    Total Tx power : 5.0523 mW (  7.0 dBm)
    Total Rx power : 4.9730 mW (  7.0 dBm)



PCS
  Previous PCS Status: 
    PCS Rx Link Status was DOWN
    PCS Rx Link was NOT Block Locked
    PCS BER (Sync Header Error) Counts: 0
    PCS BER (BIP) Counts: 0
    PCS BER (BIP) 1 second count: 0 (BER < 10e-9)
    PCS SD-BER Alarm was OFF
    PCS SF-BER Alarm was OFF
  Current PCS Status: 
    PCS Rx Link Status is DOWN
    PCS Rx Link is NOT Block Locked
    PCS BER (Sync Header Error) Counts: 0
    PCS BER (BIP) Counts: 0
    PCS BER (BIP) 1 second count: 0 (BER < 10e-9)
    PCS SD-BER Alarm is OFF
    PCS SF-BER Alarm is OFF

PCS detailed information:

  RX Service Interface Lane Sync Header Lock Status:

    Lane 0 : Not Locked
    Lane 1 : Not Locked
    Lane 2 : Not Locked
    Lane 3 : Not Locked
    Lane 4 : Not Locked
    Lane 5 : Not Locked
    Lane 6 : Not Locked
    Lane 7 : Not Locked
    Lane 8 : Not Locked
    Lane 9 : Not Locked

  Mapping of Service Interface Lane and RX PCS Lane:

    Rx Service Interface Lane 0  = PCS Lane 0
    Rx Service Interface Lane 1  = PCS Lane 1
    Rx Service Interface Lane 2  = PCS Lane 2
    Rx Service Interface Lane 3  = PCS Lane 3
    Rx Service Interface Lane 4  = PCS Lane 4
    Rx Service Interface Lane 5  = PCS Lane 5
    Rx Service Interface Lane 6  = PCS Lane 6
    Rx Service Interface Lane 7  = PCS Lane 7
    Rx Service Interface Lane 8  = PCS Lane 8
    Rx Service Interface Lane 9  = PCS Lane 9

  PCS Lane BIP Error Counters:

             Even sublane     Odd sublane
    Lane 0 : 0                0               
    Lane 1 : 0                0               
    Lane 2 : 0                0               
    Lane 3 : 0                0               
    Lane 4 : 0                0               
    Lane 5 : 0                0               
    Lane 6 : 0                0               
    Lane 7 : 0                0               
    Lane 8 : 0                0               
    Lane 9 : 0                0               

  Total PCS Lane BIP Error Count          : 0
  Total PCS Lane Sync Header Error Count  : 0
  Total PCS Lane Bad 64/66 Code Count     : 0

 General Info:
=================


PMA/PMD:
========
  Previous Alarm Status:
      PMA/PMD Rx Link is Down.
      PMA/PMD Local Fault
      LR4 Ability
      SR10 Ability
      Rx Local Fault
  Current Alarm Status:
      PMA/PMD Rx Link is Down.
      PMA/PMD Local Fault
      LR4 Ability
      SR10 Ability
      Rx Local Fault

CPAK section:
=============

Quack check: PASSED

CPAK General Information:

  Module Identifier:         CPAK_10x10G
  Ethernet Application Code: 100GBASE-SR10
  Module State:              TX Off
  Power Class:               1
  Maximum Power Consumption: 4600 mW

CPAK Vendor Information:

  Vendor Name:         CISCO           
  Vendor PN:           800-41495-01    
  Vendor SN:           FBN19122030     
  Vendor OUI:          0x0-0x0-0xc
  Lot Code:            
  DATE CODE(YYYY/MM/DD): 2015/03/19
  CPAK MSA Hardware Version:   11.0
  CPAK MSA MDIO Version:       9.0
  Vendor Hardware Version:    0.5
  Vendor Firmware Version:    2.3

CPAK UDI Information:

  UDI Compliant: Yes
  Cisco PID: CPAK-100G-SR10  
  Cisco VID: V01 

CPAK Cisco Information:

  Vendor Name: CISCO           
  Cisco PN   : 800-41495-01  Rev B0  
  Cisco SN   : FBN19122030

CPAK Detail Information:

  Number of lanes supported: 

    Number of network lanes: 10
    Number of host lanes   : 10

  Time required by module: 

    Maximum high-power-up time:   1 s
    Maximum high-power-down time:   1 s
    Maximum tx-turn-on time   :   1 s

    Maximum tx-turn-off time    : 254 ms

  Module general control: 

    Soft reset asserted     : No
    Soft low power asserted : No
    Soft tx disable asserted: Yes
    Soft program control 3 asserted: No
    Soft program control 2 asserted: No
    Soft program control 1 asserted: No
    Soft global alarm test asserted: No

    Tx disable pin asserted: No
    Low power pin asserted : No
    Program control 3 pin asserted: No
    Program control 2 pin asserted: No
    Program control 1 pin asserted: No

  Module Analog A/D value: 

    Power supply voltage : 3.2954 V
    Temperature          : 21.1521 degC

  Network lane A/D value: 

    Lane 0 Tx power: 0.0000 mW (-40.0 dBm)
    Lane 1 Tx power: 0.0000 mW (-40.0 dBm)
    Lane 2 Tx power: 0.0000 mW (-40.0 dBm)
    Lane 3 Tx power: 0.0000 mW (-40.0 dBm)
    Lane 4 Tx power: 0.0000 mW (-40.0 dBm)
    Lane 5 Tx power: 0.0000 mW (-40.0 dBm)
    Lane 6 Tx power: 0.0000 mW (-40.0 dBm)
    Lane 7 Tx power: 0.0000 mW (-40.0 dBm)
    Lane 8 Tx power: 0.0000 mW (-40.0 dBm)
    Lane 9 Tx power: 0.0000 mW (-40.0 dBm)

    Lane 0 Rx power: 0.0000 mW (-40.0 dBm)
    Lane 1 Rx power: 0.0000 mW (-40.0 dBm)
    Lane 2 Rx power: 0.0000 mW (-40.0 dBm)
    Lane 3 Rx power: 0.0000 mW (-40.0 dBm)
    Lane 4 Rx power: 0.0000 mW (-40.0 dBm)
    Lane 5 Rx power: 0.0000 mW (-40.0 dBm)
    Lane 6 Rx power: 0.0000 mW (-40.0 dBm)
    Lane 7 Rx power: 0.0000 mW (-40.0 dBm)
    Lane 8 Rx power: 0.0000 mW (-40.0 dBm)
    Lane 9 Rx power: 0.0000 mW (-40.0 dBm)

    Total Tx power : 0.0000 mW (-40.0 dBm)
    Total Rx power : 0.0000 mW (-40.0 dBm)



PCS
  Previous PCS Status: 
    PCS Rx Link Status was UP
    PCS Rx Link was Block Locked
    PCS BER (Sync Header Error) Counts: 0
    PCS BER (BIP) Counts: 0
    PCS BER (BIP) 1 second count: 0 (BER < 10e-9)
    PCS SD-BER Alarm was OFF
    PCS SF-BER Alarm was OFF
  Current PCS Status: 
    PCS Rx Link Status is UP
    PCS Rx Link is Block Locked
    PCS BER (Sync Header Error) Counts: 0
    PCS BER (BIP) Counts: 0
    PCS BER (BIP) 1 second count: 0 (BER < 10e-9)
    PCS SD-BER Alarm is OFF
    PCS SF-BER Alarm is OFF

PCS detailed information:

  RX Service Interface Lane Sync Header Lock Status:

    Lane 0 : Locked
    Lane 1 : Locked
    Lane 2 : Locked
    Lane 3 : Locked
    Lane 4 : Locked
    Lane 5 : Locked
    Lane 6 : Locked
    Lane 7 : Locked
    Lane 8 : Locked
    Lane 9 : Locked

  Mapping of Service Interface Lane and RX PCS Lane:

    Rx Service Interface Lane 0  = PCS Lane 0
    Rx Service Interface Lane 1  = PCS Lane 1
    Rx Service Interface Lane 2  = PCS Lane 2
    Rx Service Interface Lane 3  = PCS Lane 3
    Rx Service Interface Lane 4  = PCS Lane 4
    Rx Service Interface Lane 5  = PCS Lane 5
    Rx Service Interface Lane 6  = PCS Lane 6
    Rx Service Interface Lane 7  = PCS Lane 7
    Rx Service Interface Lane 8  = PCS Lane 8
    Rx Service Interface Lane 9  = PCS Lane 9

  PCS Lane BIP Error Counters:

             Even sublane     Odd sublane
    Lane 0 : 0                0               
    Lane 1 : 0                0               
    Lane 2 : 0                0               
    Lane 3 : 0                0               
    Lane 4 : 0                0               
    Lane 5 : 0                0               
    Lane 6 : 0                0               
    Lane 7 : 0                0               
    Lane 8 : 0                0               
    Lane 9 : 0                0               

  Total PCS Lane BIP Error Count          : 0
  Total PCS Lane Sync Header Error Count  : 0
  Total PCS Lane Bad 64/66 Code Count     : 0

 General Info:
=================


PMA/PMD:
========
  Previous Alarm Status:
      PMA/PMD Rx Link is Up.
      LR4 Ability
      SR10 Ability
  Current Alarm Status:
      PMA/PMD Rx Link is Up.
      LR4 Ability
      SR10 Ability

CPAK section:
=============

Quack check: PASSED

CPAK General Information:

  Module Identifier:         CPAK_10x10G
  Ethernet Application Code: 100GBASE-SR10
  Module State:              Ready
  Power Class:               1
  Maximum Power Consumption: 4600 mW

CPAK Vendor Information:

  Vendor Name:         CISCO           
  Vendor PN:           800-41495-01    
  Vendor SN:           FBN19092110     
  Vendor OUI:          0x0-0x0-0xc
  Lot Code:            
  DATE CODE(YYYY/MM/DD): 2015/03/05
  CPAK MSA Hardware Version:   11.0
  CPAK MSA MDIO Version:       9.0
  Vendor Hardware Version:    0.5
  Vendor Firmware Version:    2.3

CPAK UDI Information:

  UDI Compliant: Yes
  Cisco PID: CPAK-100G-SR10  
  Cisco VID: V01 

CPAK Cisco Information:

  Vendor Name: CISCO           
  Cisco PN   : 800-41495-01  Rev B0  
  Cisco SN   : FBN19092110

CPAK Detail Information:

  Number of lanes supported: 

    Number of network lanes: 10
    Number of host lanes   : 10

  Time required by module: 

    Maximum high-power-up time:   1 s
    Maximum high-power-down time:   1 s
    Maximum tx-turn-on time   :   1 s

    Maximum tx-turn-off time    : 254 ms

  Module general control: 

    Soft reset asserted     : No
    Soft low power asserted : No
    Soft tx disable asserted: No
    Soft program control 3 asserted: No
    Soft program control 2 asserted: No
    Soft program control 1 asserted: No
    Soft global alarm test asserted: No

    Tx disable pin asserted: No
    Low power pin asserted : No
    Program control 3 pin asserted: No
    Program control 2 pin asserted: No
    Program control 1 pin asserted: No

  Module Analog A/D value: 

    Power supply voltage : 3.2991 V
    Temperature          : 27.4602 degC

  Network lane A/D value: 

    Lane 0 Tx power: 0.5472 mW ( -2.6 dBm)
    Lane 1 Tx power: 0.5253 mW ( -2.8 dBm)
    Lane 2 Tx power: 0.5102 mW ( -2.9 dBm)
    Lane 3 Tx power: 0.5327 mW ( -2.7 dBm)
    Lane 4 Tx power: 0.4866 mW ( -3.1 dBm)
    Lane 5 Tx power: 0.5129 mW ( -2.9 dBm)
    Lane 6 Tx power: 0.5129 mW ( -2.9 dBm)
    Lane 7 Tx power: 0.5416 mW ( -2.7 dBm)
    Lane 8 Tx power: 0.5111 mW ( -2.9 dBm)
    Lane 9 Tx power: 0.5343 mW ( -2.7 dBm)

    Lane 0 Rx power: 0.5251 mW ( -2.8 dBm)
    Lane 1 Rx power: 0.5345 mW ( -2.7 dBm)
    Lane 2 Rx power: 0.5865 mW ( -2.3 dBm)
    Lane 3 Rx power: 0.4876 mW ( -3.1 dBm)
    Lane 4 Rx power: 0.4308 mW ( -3.7 dBm)
    Lane 5 Rx power: 0.5249 mW ( -2.8 dBm)
    Lane 6 Rx power: 0.5047 mW ( -3.0 dBm)
    Lane 7 Rx power: 0.4419 mW ( -3.5 dBm)
    Lane 8 Rx power: 0.5576 mW ( -2.5 dBm)
    Lane 9 Rx power: 0.4585 mW ( -3.4 dBm)

    Total Tx power : 5.2148 mW (  7.2 dBm)
    Total Rx power : 5.0521 mW (  7.0 dBm)



PCS
  Previous PCS Status: 
    PCS Rx Link Status was UP
    PCS Rx Link was Block Locked
    PCS BER (Sync Header Error) Counts: 0
    PCS BER (BIP) Counts: 0
    PCS BER (BIP) 1 second count: 0 (BER < 10e-9)
    PCS SD-BER Alarm was OFF
    PCS SF-BER Alarm was OFF
  Current PCS Status: 
    PCS Rx Link Status is UP
    PCS Rx Link is Block Locked
    PCS BER (Sync Header Error) Counts: 0
    PCS BER (BIP) Counts: 0
    PCS BER (BIP) 1 second count: 0 (BER < 10e-9)
    PCS SD-BER Alarm is OFF
    PCS SF-BER Alarm is OFF

PCS detailed information:

  RX Service Interface Lane Sync Header Lock Status:

    Lane 0 : Locked
    Lane 1 : Locked
    Lane 2 : Locked
    Lane 3 : Locked
    Lane 4 : Locked
    Lane 5 : Locked
    Lane 6 : Locked
    Lane 7 : Locked
    Lane 8 : Locked
    Lane 9 : Locked

  Mapping of Service Interface Lane and RX PCS Lane:

    Rx Service Interface Lane 0  = PCS Lane 0
    Rx Service Interface Lane 1  = PCS Lane 1
    Rx Service Interface Lane 2  = PCS Lane 2
    Rx Service Interface Lane 3  = PCS Lane 3
    Rx Service Interface Lane 4  = PCS Lane 4
    Rx Service Interface Lane 5  = PCS Lane 5
    Rx Service Interface Lane 6  = PCS Lane 6
    Rx Service Interface Lane 7  = PCS Lane 7
    Rx Service Interface Lane 8  = PCS Lane 8
    Rx Service Interface Lane 9  = PCS Lane 9

  PCS Lane BIP Error Counters:

             Even sublane     Odd sublane
    Lane 0 : 0                0               
    Lane 1 : 0                0               
    Lane 2 : 0                0               
    Lane 3 : 0                0               
    Lane 4 : 0                0               
    Lane 5 : 0                0               
    Lane 6 : 0                0               
    Lane 7 : 0                0               
    Lane 8 : 0                0               
    Lane 9 : 0                0               

  Total PCS Lane BIP Error Count          : 0
  Total PCS Lane Sync Header Error Count  : 0
  Total PCS Lane Bad 64/66 Code Count     : 0

 General Info:
=================


PMA/PMD:
========
  Previous Alarm Status:
      PMA/PMD Rx Link is Up.
      LR4 Ability
      SR10 Ability
  Current Alarm Status:
      PMA/PMD Rx Link is Up.
      LR4 Ability
      SR10 Ability

CPAK section:
=============

Quack check: PASSED

CPAK General Information:

  Module Identifier:         CPAK_10x10G
  Ethernet Application Code: 100GBASE-SR10
  Module State:              Ready
  Power Class:               1
  Maximum Power Consumption: 4600 mW

CPAK Vendor Information:

  Vendor Name:         CISCO           
  Vendor PN:           800-41495-01    
  Vendor SN:           FBN19092111     
  Vendor OUI:          0x0-0x0-0xc
  Lot Code:            
  DATE CODE(YYYY/MM/DD): 2015/03/05
  CPAK MSA Hardware Version:   11.0
  CPAK MSA MDIO Version:       9.0
  Vendor Hardware Version:    0.5
  Vendor Firmware Version:    2.3

CPAK UDI Information:

  UDI Compliant: Yes
  Cisco PID: CPAK-100G-SR10  
  Cisco VID: V01 

CPAK Cisco Information:

  Vendor Name: CISCO           
  Cisco PN   : 800-41495-01  Rev B0  
  Cisco SN   : FBN19092111

CPAK Detail Information:

  Number of lanes supported: 

    Number of network lanes: 10
    Number of host lanes   : 10

  Time required by module: 

    Maximum high-power-up time:   1 s
    Maximum high-power-down time:   1 s
    Maximum tx-turn-on time   :   1 s

    Maximum tx-turn-off time    : 254 ms

  Module general control: 

    Soft reset asserted     : No
    Soft low power asserted : No
    Soft tx disable asserted: No
    Soft program control 3 asserted: No
    Soft program control 2 asserted: No
    Soft program control 1 asserted: No
    Soft global alarm test asserted: No

    Tx disable pin asserted: No
    Low power pin asserted : No
    Program control 3 pin asserted: No
    Program control 2 pin asserted: No
    Program control 1 pin asserted: No

  Module Analog A/D value: 

    Power supply voltage : 3.2942 V
    Temperature          : 25.8307 degC

  Network lane A/D value: 

    Lane 0 Tx power: 0.5391 mW ( -2.7 dBm)
    Lane 1 Tx power: 0.4846 mW ( -3.1 dBm)
    Lane 2 Tx power: 0.5342 mW ( -2.7 dBm)
    Lane 3 Tx power: 0.5034 mW ( -3.0 dBm)
    Lane 4 Tx power: 0.5094 mW ( -2.9 dBm)
    Lane 5 Tx power: 0.4753 mW ( -3.2 dBm)
    Lane 6 Tx power: 0.5212 mW ( -2.8 dBm)
    Lane 7 Tx power: 0.4953 mW ( -3.1 dBm)
    Lane 8 Tx power: 0.5488 mW ( -2.6 dBm)
    Lane 9 Tx power: 0.4941 mW ( -3.1 dBm)

    Lane 0 Rx power: 0.5597 mW ( -2.5 dBm)
    Lane 1 Rx power: 0.5674 mW ( -2.5 dBm)
    Lane 2 Rx power: 0.5755 mW ( -2.4 dBm)
    Lane 3 Rx power: 0.5692 mW ( -2.4 dBm)
    Lane 4 Rx power: 0.6046 mW ( -2.2 dBm)
    Lane 5 Rx power: 0.5960 mW ( -2.2 dBm)
    Lane 6 Rx power: 0.6081 mW ( -2.2 dBm)
    Lane 7 Rx power: 0.5935 mW ( -2.3 dBm)
    Lane 8 Rx power: 0.6121 mW ( -2.1 dBm)
    Lane 9 Rx power: 0.5941 mW ( -2.3 dBm)

    Total Tx power : 5.1054 mW (  7.1 dBm)
    Total Rx power : 5.8802 mW (  7.7 dBm)



PCS
  Previous PCS Status: 
    PCS Rx Link Status was UP
    PCS Rx Link was Block Locked
    PCS BER (Sync Header Error) Counts: 0
    PCS BER (BIP) Counts: 0
    PCS BER (BIP) 1 second count: 0 (BER < 10e-9)
    PCS SD-BER Alarm was OFF
    PCS SF-BER Alarm was OFF
  Current PCS Status: 
    PCS Rx Link Status is UP
    PCS Rx Link is Block Locked
    PCS BER (Sync Header Error) Counts: 0
    PCS BER (BIP) Counts: 0
    PCS BER (BIP) 1 second count: 0 (BER < 10e-9)
    PCS SD-BER Alarm is OFF
    PCS SF-BER Alarm is OFF

PCS detailed information:

  RX Service Interface Lane Sync Header Lock Status:

    Lane 0 : Locked
    Lane 1 : Locked
    Lane 2 : Locked
    Lane 3 : Locked
    Lane 4 : Locked
    Lane 5 : Locked
    Lane 6 : Locked
    Lane 7 : Locked
    Lane 8 : Locked
    Lane 9 : Locked

  Mapping of Service Interface Lane and RX PCS Lane:

    Rx Service Interface Lane 0  = PCS Lane 0
    Rx Service Interface Lane 1  = PCS Lane 1
    Rx Service Interface Lane 2  = PCS Lane 2
    Rx Service Interface Lane 3  = PCS Lane 3
    Rx Service Interface Lane 4  = PCS Lane 4
    Rx Service Interface Lane 5  = PCS Lane 5
    Rx Service Interface Lane 6  = PCS Lane 6
    Rx Service Interface Lane 7  = PCS Lane 7
    Rx Service Interface Lane 8  = PCS Lane 8
    Rx Service Interface Lane 9  = PCS Lane 9

  PCS Lane BIP Error Counters:

             Even sublane     Odd sublane
    Lane 0 : 0                0               
    Lane 1 : 0                0               
    Lane 2 : 0                0               
    Lane 3 : 0                0               
    Lane 4 : 0                0               
    Lane 5 : 0                0               
    Lane 6 : 0                0               
    Lane 7 : 0                0               
    Lane 8 : 0                0               
    Lane 9 : 0                0               

  Total PCS Lane BIP Error Count          : 0
  Total PCS Lane Sync Header Error Count  : 0
  Total PCS Lane Bad 64/66 Code Count     : 0

 General Info:
=================


PMA/PMD:
========
  Previous Alarm Status:
      PMA/PMD Rx Link is Up.
      LR4 Ability
      SR10 Ability
  Current Alarm Status:
      PMA/PMD Rx Link is Up.
      LR4 Ability
      SR10 Ability

CPAK section:
=============

Quack check: PASSED

CPAK General Information:

  Module Identifier:         CPAK_10x10G
  Ethernet Application Code: 100GBASE-SR10
  Module State:              Ready
  Power Class:               1
  Maximum Power Consumption: 4600 mW

CPAK Vendor Information:

  Vendor Name:         CISCO           
  Vendor PN:           800-41495-01    
  Vendor SN:           FBN19122025     
  Vendor OUI:          0x0-0x0-0xc
  Lot Code:            
  DATE CODE(YYYY/MM/DD): 2015/03/19
  CPAK MSA Hardware Version:   11.0
  CPAK MSA MDIO Version:       9.0
  Vendor Hardware Version:    0.5
  Vendor Firmware Version:    2.3

CPAK UDI Information:

  UDI Compliant: Yes
  Cisco PID: CPAK-100G-SR10  
  Cisco VID: V01 

CPAK Cisco Information:

  Vendor Name: CISCO           
  Cisco PN   : 800-41495-01  Rev B0  
  Cisco SN   : FBN19122025

CPAK Detail Information:

  Number of lanes supported: 

    Number of network lanes: 10
    Number of host lanes   : 10

  Time required by module: 

    Maximum high-power-up time:   1 s
    Maximum high-power-down time:   1 s
    Maximum tx-turn-on time   :   1 s

    Maximum tx-turn-off time    : 254 ms

  Module general control: 

    Soft reset asserted     : No
    Soft low power asserted : No
    Soft tx disable asserted: No
    Soft program control 3 asserted: No
    Soft program control 2 asserted: No
    Soft program control 1 asserted: No
    Soft global alarm test asserted: No

    Tx disable pin asserted: No
    Low power pin asserted : No
    Program control 3 pin asserted: No
    Program control 2 pin asserted: No
    Program control 1 pin asserted: No

  Module Analog A/D value: 

    Power supply voltage : 3.3028 V
    Temperature          : 25.4212 degC

  Network lane A/D value: 

    Lane 0 Tx power: 0.5831 mW ( -2.3 dBm)
    Lane 1 Tx power: 0.5871 mW ( -2.3 dBm)
    Lane 2 Tx power: 0.5774 mW ( -2.4 dBm)
    Lane 3 Tx power: 0.6008 mW ( -2.2 dBm)
    Lane 4 Tx power: 0.5457 mW ( -2.6 dBm)
    Lane 5 Tx power: 0.5611 mW ( -2.5 dBm)
    Lane 6 Tx power: 0.5296 mW ( -2.8 dBm)
    Lane 7 Tx power: 0.5524 mW ( -2.6 dBm)
    Lane 8 Tx power: 0.5542 mW ( -2.6 dBm)
    Lane 9 Tx power: 0.5349 mW ( -2.7 dBm)

    Lane 0 Rx power: 0.4432 mW ( -3.5 dBm)
    Lane 1 Rx power: 0.6225 mW ( -2.1 dBm)
    Lane 2 Rx power: 0.6431 mW ( -1.9 dBm)
    Lane 3 Rx power: 0.6172 mW ( -2.1 dBm)
    Lane 4 Rx power: 0.4315 mW ( -3.7 dBm)
    Lane 5 Rx power: 0.5563 mW ( -2.5 dBm)
    Lane 6 Rx power: 0.5017 mW ( -3.0 dBm)
    Lane 7 Rx power: 0.4878 mW ( -3.1 dBm)
    Lane 8 Rx power: 0.5729 mW ( -2.4 dBm)
    Lane 9 Rx power: 0.5421 mW ( -2.7 dBm)

    Total Tx power : 5.6263 mW (  7.5 dBm)
    Total Rx power : 5.4183 mW (  7.3 dBm)



PCS
  Previous PCS Status: 
    PCS Rx Link Status was DOWN
    PCS Rx Link was NOT Block Locked
    PCS BER (Sync Header Error) Counts: 0
    PCS BER (BIP) Counts: 0
    PCS BER (BIP) 1 second count: 0 (BER < 10e-9)
    PCS SD-BER Alarm was OFF
    PCS SF-BER Alarm was OFF
  Current PCS Status: 
    PCS Rx Link Status is DOWN
    PCS Rx Link is NOT Block Locked
    PCS BER (Sync Header Error) Counts: 0
    PCS BER (BIP) Counts: 0
    PCS BER (BIP) 1 second count: 0 (BER < 10e-9)
    PCS SD-BER Alarm is OFF
    PCS SF-BER Alarm is OFF

PCS detailed information:

  RX Service Interface Lane Sync Header Lock Status:

    Lane 0 : Not Locked
    Lane 1 : Not Locked
    Lane 2 : Not Locked
    Lane 3 : Not Locked
    Lane 4 : Not Locked
    Lane 5 : Not Locked
    Lane 6 : Not Locked
    Lane 7 : Not Locked
    Lane 8 : Not Locked
    Lane 9 : Not Locked

  Mapping of Service Interface Lane and RX PCS Lane:

    Rx Service Interface Lane 0  = PCS Lane 0
    Rx Service Interface Lane 1  = PCS Lane 1
    Rx Service Interface Lane 2  = PCS Lane 2
    Rx Service Interface Lane 3  = PCS Lane 3
    Rx Service Interface Lane 4  = PCS Lane 4
    Rx Service Interface Lane 5  = PCS Lane 5
    Rx Service Interface Lane 6  = PCS Lane 6
    Rx Service Interface Lane 7  = PCS Lane 7
    Rx Service Interface Lane 8  = PCS Lane 8
    Rx Service Interface Lane 9  = PCS Lane 9

  PCS Lane BIP Error Counters:

             Even sublane     Odd sublane
    Lane 0 : 0                0               
    Lane 1 : 0                0               
    Lane 2 : 0                0               
    Lane 3 : 0                0               
    Lane 4 : 0                0               
    Lane 5 : 0                0               
    Lane 6 : 0                0               
    Lane 7 : 0                0               
    Lane 8 : 0                0               
    Lane 9 : 0                0               

  Total PCS Lane BIP Error Count          : 0
  Total PCS Lane Sync Header Error Count  : 0
  Total PCS Lane Bad 64/66 Code Count     : 0

 General Info:
=================


PMA/PMD:
========
  Previous Alarm Status:
      PMA/PMD Rx Link is Down.
      PMA/PMD Local Fault
      LR4 Ability
      SR10 Ability
      Rx Local Fault
  Current Alarm Status:
      PMA/PMD Rx Link is Down.
      PMA/PMD Local Fault
      LR4 Ability
      SR10 Ability
      Rx Local Fault

CPAK section:
=============

Quack check: PASSED

CPAK General Information:

  Module Identifier:         CPAK_10x10G
  Ethernet Application Code: 100GBASE-SR10
  Module State:              TX Off
  Power Class:               1
  Maximum Power Consumption: 4600 mW

CPAK Vendor Information:

  Vendor Name:         CISCO           
  Vendor PN:           800-41495-01    
  Vendor SN:           FBN19122022     
  Vendor OUI:          0x0-0x0-0xc
  Lot Code:            
  DATE CODE(YYYY/MM/DD): 2015/03/19
  CPAK MSA Hardware Version:   11.0
  CPAK MSA MDIO Version:       9.0
  Vendor Hardware Version:    0.5
  Vendor Firmware Version:    2.3

CPAK UDI Information:

  UDI Compliant: Yes
  Cisco PID: CPAK-100G-SR10  
  Cisco VID: V01 

CPAK Cisco Information:

  Vendor Name: CISCO           
  Cisco PN   : 800-41495-01  Rev B0  
  Cisco SN   : FBN19122022

CPAK Detail Information:

  Number of lanes supported: 

    Number of network lanes: 10
    Number of host lanes   : 10

  Time required by module: 

    Maximum high-power-up time:   1 s
    Maximum high-power-down time:   1 s
    Maximum tx-turn-on time   :   1 s

    Maximum tx-turn-off time    : 254 ms

  Module general control: 

    Soft reset asserted     : No
    Soft low power asserted : No
    Soft tx disable asserted: Yes
    Soft program control 3 asserted: No
    Soft program control 2 asserted: No
    Soft program control 1 asserted: No
    Soft global alarm test asserted: No

    Tx disable pin asserted: No
    Low power pin asserted : No
    Program control 3 pin asserted: No
    Program control 2 pin asserted: No
    Program control 1 pin asserted: No

  Module Analog A/D value: 

    Power supply voltage : 3.2832 V
    Temperature          : 21.2223 degC

  Network lane A/D value: 

    Lane 0 Tx power: 0.0000 mW (-40.0 dBm)
    Lane 1 Tx power: 0.0000 mW (-40.0 dBm)
    Lane 2 Tx power: 0.0000 mW (-40.0 dBm)
    Lane 3 Tx power: 0.0000 mW (-40.0 dBm)
    Lane 4 Tx power: 0.0000 mW (-40.0 dBm)
    Lane 5 Tx power: 0.0000 mW (-40.0 dBm)
    Lane 6 Tx power: 0.0000 mW (-40.0 dBm)
    Lane 7 Tx power: 0.0000 mW (-40.0 dBm)
    Lane 8 Tx power: 0.0000 mW (-40.0 dBm)
    Lane 9 Tx power: 0.0000 mW (-40.0 dBm)

    Lane 0 Rx power: 0.0000 mW (-40.0 dBm)
    Lane 1 Rx power: 0.0000 mW (-40.0 dBm)
    Lane 2 Rx power: 0.0000 mW (-40.0 dBm)
    Lane 3 Rx power: 0.0000 mW (-40.0 dBm)
    Lane 4 Rx power: 0.0000 mW (-40.0 dBm)
    Lane 5 Rx power: 0.0000 mW (-40.0 dBm)
    Lane 6 Rx power: 0.0000 mW (-40.0 dBm)
    Lane 7 Rx power: 0.0000 mW (-40.0 dBm)
    Lane 8 Rx power: 0.0000 mW (-40.0 dBm)
    Lane 9 Rx power: 0.0000 mW (-40.0 dBm)

    Total Tx power : 0.0000 mW (-40.0 dBm)
    Total Rx power : 0.0000 mW (-40.0 dBm)


No XGXS present

No XGXS present

No XGXS present

No XGXS present

No XGXS present

No XGXS present

No XGXS present

No XGXS present

Regs Info
OTN Controller 0 common register:

TOP_MPIF Block : 
---------------------------
Addr     Name                            Value
0x00002  GLOBAL_CFG                      0x0051
0x00004  SCRATCH_PAD1                    0x001e
0x00005  SCRATCH_PAD2                    0x2800
0x00009  GPIO_CONTROL                    0x0000

SDS_COMMON Block : BANK B
---------------------------
Addr     Name                            Value
0x0241f  RXLOCKD0_INTSTATUS 3            0x0008
0x02445  RXLOCKD1_INTSTATUS 3            0x0008
0x0246b  RXLOCKD2_INTSTATUS 3            0x0008
0x02491  RXLOCKD3_INTSTATUS 3            0x0008
0x024b9  TXLOCKD0_INTSTATUS 3            0x0008
0x0281f  RXLOCKD0_INTSTATUS 4            0x0008
0x02845  RXLOCKD1_INTSTATUS 4            0x0008
0x0286b  RXLOCKD2_INTSTATUS 4            0x0008
0x02891  RXLOCKD3_INTSTATUS 4            0x004d
0x028b9  TXLOCKD0_INTSTATUS 4            0x0008

SDS_COMMON Block : BANK C
---------------------------
Addr     Name                            Value
0x0301f  RXLOCKD0_INTSTATUS 6            0x0049
0x03045  RXLOCKD1_INTSTATUS 6            0x0049
0x0306b  RXLOCKD2_INTSTATUS 6            0x0049
0x03091  RXLOCKD3_INTSTATUS 6            0x0049
0x030b9  TXLOCKD0_INTSTATUS 6            0x0049
0x0341f  RXLOCKD0_INTSTATUS 7            0x0049
0x03445  RXLOCKD1_INTSTATUS 7            0x0049
0x0346b  RXLOCKD2_INTSTATUS 7            0x0049
0x03491  RXLOCKD3_INTSTATUS 7            0x0049
0x034b9  TXLOCKD0_INTSTATUS 7            0x0049

ILKN_CORE Block : 
---------------------------
Addr     Name                            Value
0x19d6b  RX_INTERLAKEN_STATUS0           0x0049
0x19d6c  RX_INTERLAKEN_SYNCED1           0x0049
0x19d6d  RX_INTERLAKEN_SYNCED0           0x0049
0x19d66  RX_OOBFC_RX_LANE_STATUS1        0x0049
0x19d67  RX_OOBFC_RX_LANE_STATUS0        0x0049
0x19d62  TX_INTERLAKEN_STATUS1           0x0049
0x19d63  TX_INTERLAKEN_STATUS0           0x0049

Port/0 register:

SDS_COMMON Block : line
---------------------------
Addr     Name                            Value
0x0181f  RXLOCKD0_INTSTATUS 0            0x0049
0x01845  RXLOCKD1_INTSTATUS 0            0x0049
0x0186b  RXLOCKD2_INTSTATUS 0            0x0049
0x01891  RXLOCKD3_INTSTATUS 0            0x0049
0x018b9  TXLOCKD0_INTSTATUS 0            0x0049

CPAK Registers:
================

NVR 1 Registers:

(Reg 0x8000=0x01) (Reg 0x8001=0x21) (Reg 0x8002=0x09) (Reg 0x8003=0x03) 
(Reg 0x8004=0x00) (Reg 0x8005=0x00) (Reg 0x8006=0x00) (Reg 0x8007=0x00) 
(Reg 0x8008=0x1e) (Reg 0x8009=0xaa) (Reg 0x800a=0x4a) (Reg 0x800b=0x38) 
(Reg 0x800c=0x38) (Reg 0x800d=0x00) (Reg 0x800e=0x0a) (Reg 0x800f=0x00) 
(Reg 0x8010=0x0a) (Reg 0x8011=0x01) (Reg 0x8012=0x83) (Reg 0x8013=0x40) 
(Reg 0x8014=0x86) (Reg 0x8015=0x60) (Reg 0x8016=0x00) (Reg 0x8017=0x00) 
(Reg 0x8018=0x00) (Reg 0x8019=0x04) (Reg 0x801a=0x40) (Reg 0x801b=0x50) 
(Reg 0x801c=0x26) (Reg 0x801d=0x17) (Reg 0x801e=0x14) (Reg 0x801f=0x46) 
(Reg 0x8020=0x00) (Reg 0x8021=0x43) (Reg 0x8022=0x49) (Reg 0x8023=0x53) 
(Reg 0x8024=0x43) (Reg 0x8025=0x4f) (Reg 0x8026=0x20) (Reg 0x8027=0x20) 
(Reg 0x8028=0x20) (Reg 0x8029=0x20) (Reg 0x802a=0x20) (Reg 0x802b=0x20) 
(Reg 0x802c=0x20) (Reg 0x802d=0x20) (Reg 0x802e=0x20) (Reg 0x802f=0x20) 
(Reg 0x8030=0x20) (Reg 0x8031=0x00) (Reg 0x8032=0x00) (Reg 0x8033=0x0c) 
(Reg 0x8034=0x38) (Reg 0x8035=0x30) (Reg 0x8036=0x30) (Reg 0x8037=0x2d) 
(Reg 0x8038=0x34) (Reg 0x8039=0x31) (Reg 0x803a=0x34) (Reg 0x803b=0x39) 
(Reg 0x803c=0x35) (Reg 0x803d=0x2d) (Reg 0x803e=0x30) (Reg 0x803f=0x31) 
(Reg 0x8040=0x20) (Reg 0x8041=0x20) (Reg 0x8042=0x20) (Reg 0x8043=0x20) 
(Reg 0x8044=0x46) (Reg 0x8045=0x42) (Reg 0x8046=0x4e) (Reg 0x8047=0x31) 
(Reg 0x8048=0x39) (Reg 0x8049=0x31) (Reg 0x804a=0x32) (Reg 0x804b=0x32) 
(Reg 0x804c=0x30) (Reg 0x804d=0x31) (Reg 0x804e=0x37) (Reg 0x804f=0x20) 
(Reg 0x8050=0x20) (Reg 0x8051=0x20) (Reg 0x8052=0x20) (Reg 0x8053=0x20) 
(Reg 0x8054=0x32) (Reg 0x8055=0x30) (Reg 0x8056=0x31) (Reg 0x8057=0x35) 
(Reg 0x8058=0x30) (Reg 0x8059=0x33) (Reg 0x805a=0x32) (Reg 0x805b=0x30) 
(Reg 0x805c=0x00) (Reg 0x805d=0x00) (Reg 0x805e=0x57) (Reg 0x805f=0x4f) 
(Reg 0x8060=0x54) (Reg 0x8061=0x52) (Reg 0x8062=0x43) (Reg 0x8063=0x35) 
(Reg 0x8064=0x50) (Reg 0x8065=0x42) (Reg 0x8066=0x41) (Reg 0x8067=0x41) 
(Reg 0x8068=0x6e) (Reg 0x8069=0x5a) (Reg 0x806a=0x00) (Reg 0x806b=0x05) 
(Reg 0x806c=0x02) (Reg 0x806d=0x03) (Reg 0x806e=0x0c) (Reg 0x806f=0x03) 
(Reg 0x8070=0x0f) (Reg 0x8071=0x20) (Reg 0x8072=0x01) (Reg 0x8073=0x01) 
(Reg 0x8074=0x08) (Reg 0x8075=0x00) (Reg 0x8076=0xfe) (Reg 0x8077=0x01) 
(Reg 0x8078=0x00) (Reg 0x8079=0x00) (Reg 0x807a=0x00) (Reg 0x807b=0x02) 
(Reg 0x807c=0x03) (Reg 0x807d=0x00) (Reg 0x807e=0x00) (Reg 0x807f=0xe0) 

NVR 2 Registers:

(Reg 0x8080=0x4b) (Reg 0x8081=0x00) (Reg 0x8082=0x46) (Reg 0x8083=0x00) 
(Reg 0x8084=0x00) (Reg 0x8085=0x00) (Reg 0x8086=0xfb) (Reg 0x8087=0x00) 
(Reg 0x8088=0x8a) (Reg 0x8089=0x00) (Reg 0x808a=0x87) (Reg 0x808b=0x5a) 
(Reg 0x808c=0x7a) (Reg 0x808d=0x76) (Reg 0x808e=0x77) (Reg 0x808f=0xe2) 
(Reg 0x8090=0x00) (Reg 0x8091=0x00) (Reg 0x8092=0x00) (Reg 0x8093=0x00) 
(Reg 0x8094=0x00) (Reg 0x8095=0x00) (Reg 0x8096=0x00) (Reg 0x8097=0x00) 
(Reg 0x8098=0x00) (Reg 0x8099=0x00) (Reg 0x809a=0x00) (Reg 0x809b=0x00) 
(Reg 0x809c=0x00) (Reg 0x809d=0x00) (Reg 0x809e=0x00) (Reg 0x809f=0x00) 
(Reg 0x80a0=0x00) (Reg 0x80a1=0x00) (Reg 0x80a2=0x00) (Reg 0x80a3=0x00) 
(Reg 0x80a4=0x00) (Reg 0x80a5=0x00) (Reg 0x80a6=0x00) (Reg 0x80a7=0x00) 
(Reg 0x80a8=0x13) (Reg 0x80a9=0x88) (Reg 0x80aa=0x11) (Reg 0x80ab=0x94) 
(Reg 0x80ac=0x05) (Reg 0x80ad=0xdc) (Reg 0x80ae=0x03) (Reg 0x80af=0xe8) 
(Reg 0x80b0=0x45) (Reg 0x80b1=0x76) (Reg 0x80b2=0x22) (Reg 0x80b3=0xd0) 
(Reg 0x80b4=0x06) (Reg 0x80b5=0xc9) (Reg 0x80b6=0x03) (Reg 0x80b7=0x66) 
(Reg 0x80b8=0x5a) (Reg 0x80b9=0x00) (Reg 0x80ba=0x55) (Reg 0x80bb=0x00) 
(Reg 0x80bc=0x00) (Reg 0x80bd=0x00) (Reg 0x80be=0xfb) (Reg 0x80bf=0x00) 
(Reg 0x80c0=0x88) (Reg 0x80c1=0x71) (Reg 0x80c2=0x43) (Reg 0x80c3=0xe2) 
(Reg 0x80c4=0x04) (Reg 0x80c5=0x62) (Reg 0x80c6=0x02) (Reg 0x80c7=0x32) 
(Reg 0x80c8=0x00) (Reg 0x80c9=0x00) (Reg 0x80ca=0x00) (Reg 0x80cb=0x00) 
(Reg 0x80cc=0x00) (Reg 0x80cd=0x00) (Reg 0x80ce=0x00) (Reg 0x80cf=0x00) 
(Reg 0x80d0=0x00) (Reg 0x80d1=0x00) (Reg 0x80d2=0x00) (Reg 0x80d3=0x00) 
(Reg 0x80d4=0x00) (Reg 0x80d5=0x00) (Reg 0x80d6=0x00) (Reg 0x80d7=0x00) 
(Reg 0x80d8=0x00) (Reg 0x80d9=0x00) (Reg 0x80da=0x00) (Reg 0x80db=0x00) 
(Reg 0x80dc=0x00) (Reg 0x80dd=0x00) (Reg 0x80de=0x00) (Reg 0x80df=0x00) 
(Reg 0x80e0=0x00) (Reg 0x80e1=0x00) (Reg 0x80e2=0x00) (Reg 0x80e3=0x00) 
(Reg 0x80e4=0x00) (Reg 0x80e5=0x00) (Reg 0x80e6=0x00) (Reg 0x80e7=0x00) 
(Reg 0x80e8=0x00) (Reg 0x80e9=0x00) (Reg 0x80ea=0x00) (Reg 0x80eb=0x00) 
(Reg 0x80ec=0x00) (Reg 0x80ed=0x00) (Reg 0x80ee=0x00) (Reg 0x80ef=0x00) 
(Reg 0x80f0=0x00) (Reg 0x80f1=0x00) (Reg 0x80f2=0x00) (Reg 0x80f3=0x00) 
(Reg 0x80f4=0x00) (Reg 0x80f5=0x00) (Reg 0x80f6=0x00) (Reg 0x80f7=0x00) 
(Reg 0x80f8=0x00) (Reg 0x80f9=0x00) (Reg 0x80fa=0x00) (Reg 0x80fb=0x00) 
(Reg 0x80fc=0x00) (Reg 0x80fd=0x00) (Reg 0x80fe=0x00) (Reg 0x80ff=0x93) 

NVR 3 Registers:

(Reg 0x8100=0x00) (Reg 0x8101=0x00) (Reg 0x8102=0x00) (Reg 0x8103=0x00) 
(Reg 0x8104=0x00) (Reg 0x8105=0x00) (Reg 0x8106=0x00) (Reg 0x8107=0x00) 
(Reg 0x8108=0x00) (Reg 0x8109=0x00) (Reg 0x810a=0x00) (Reg 0x810b=0x00) 
(Reg 0x810c=0x00) (Reg 0x810d=0x00) (Reg 0x810e=0x00) (Reg 0x810f=0x00) 
(Reg 0x8110=0x00) (Reg 0x8111=0x00) (Reg 0x8112=0x00) (Reg 0x8113=0x00) 
(Reg 0x8114=0x00) (Reg 0x8115=0x00) (Reg 0x8116=0x00) (Reg 0x8117=0x00) 
(Reg 0x8118=0x00) (Reg 0x8119=0x00) (Reg 0x811a=0x00) (Reg 0x811b=0x00) 
(Reg 0x811c=0x00) (Reg 0x811d=0x00) (Reg 0x811e=0x00) (Reg 0x811f=0x00) 
(Reg 0x8120=0x00) (Reg 0x8121=0x00) (Reg 0x8122=0x00) (Reg 0x8123=0x00) 
(Reg 0x8124=0x00) (Reg 0x8125=0x00) (Reg 0x8126=0x00) (Reg 0x8127=0x00) 
(Reg 0x8128=0x00) (Reg 0x8129=0x00) (Reg 0x812a=0x00) (Reg 0x812b=0x00) 
(Reg 0x812c=0x00) (Reg 0x812d=0x00) (Reg 0x812e=0x00) (Reg 0x812f=0x00) 
(Reg 0x8130=0x00) (Reg 0x8131=0x00) (Reg 0x8132=0x00) (Reg 0x8133=0x00) 
(Reg 0x8134=0x00) (Reg 0x8135=0x00) (Reg 0x8136=0x00) (Reg 0x8137=0x00) 
(Reg 0x8138=0x00) (Reg 0x8139=0x00) (Reg 0x813a=0x00) (Reg 0x813b=0x00) 
(Reg 0x813c=0x00) (Reg 0x813d=0x00) (Reg 0x813e=0x00) (Reg 0x813f=0x00) 
(Reg 0x8140=0x00) (Reg 0x8141=0x00) (Reg 0x8142=0x00) (Reg 0x8143=0x00) 
(Reg 0x8144=0x00) (Reg 0x8145=0x00) (Reg 0x8146=0x00) (Reg 0x8147=0x00) 
(Reg 0x8148=0x00) (Reg 0x8149=0x00) (Reg 0x814a=0x00) (Reg 0x814b=0x00) 
(Reg 0x814c=0x00) (Reg 0x814d=0x00) (Reg 0x814e=0x00) (Reg 0x814f=0x00) 
(Reg 0x8150=0x00) (Reg 0x8151=0x00) (Reg 0x8152=0x00) (Reg 0x8153=0x00) 
(Reg 0x8154=0x00) (Reg 0x8155=0x00) (Reg 0x8156=0x00) (Reg 0x8157=0x00) 
(Reg 0x8158=0x00) (Reg 0x8159=0x00) (Reg 0x815a=0x00) (Reg 0x815b=0x00) 
(Reg 0x815c=0x00) (Reg 0x815d=0x00) (Reg 0x815e=0x00) (Reg 0x815f=0x00) 
(Reg 0x8160=0x00) (Reg 0x8161=0x00) (Reg 0x8162=0x00) (Reg 0x8163=0x00) 
(Reg 0x8164=0x00) (Reg 0x8165=0x00) (Reg 0x8166=0x00) (Reg 0x8167=0x00) 
(Reg 0x8168=0x00) (Reg 0x8169=0x00) (Reg 0x816a=0x00) (Reg 0x816b=0x00) 
(Reg 0x816c=0x00) (Reg 0x816d=0x00) (Reg 0x816e=0x00) (Reg 0x816f=0x00) 
(Reg 0x8170=0x00) (Reg 0x8171=0x00) (Reg 0x8172=0x00) (Reg 0x8173=0x00) 
(Reg 0x8174=0x00) (Reg 0x8175=0x00) (Reg 0x8176=0x00) (Reg 0x8177=0x00) 
(Reg 0x8178=0x00) (Reg 0x8179=0x00) (Reg 0x817a=0x00) (Reg 0x817b=0x00) 
(Reg 0x817c=0x00) (Reg 0x817d=0x00) (Reg 0x817e=0x00) (Reg 0x817f=0x00) 

NVR 4 Registers:

(Reg 0x8180=0x00) 

VR 1 Registers:

(Reg 0xa000=0x0000) (Reg 0xa001=0x1234) (Reg 0xa002=0x0000) (Reg 0xa003=0x0000) 
(Reg 0xa004=0x0000) (Reg 0xa005=0x0000) (Reg 0xa006=0x0000) (Reg 0xa007=0x0000) 
(Reg 0xa008=0x0000) (Reg 0xa009=0x0000) (Reg 0xa00a=0x0000) (Reg 0xa00b=0x0000) 
(Reg 0xa00c=0x0000) (Reg 0xa00d=0x0000) (Reg 0xa00e=0x0000) (Reg 0xa00f=0x0000) 
(Reg 0xa010=0x0000) (Reg 0xa011=0x0200) (Reg 0xa012=0x0200) (Reg 0xa013=0x0000) 
(Reg 0xa014=0x0000) (Reg 0xa015=0x0000) (Reg 0xa016=0x0020) (Reg 0xa017=0x0000) 
(Reg 0xa018=0x0000) (Reg 0xa019=0x0000) (Reg 0xa01a=0x0000) (Reg 0xa01b=0x0000) 
(Reg 0xa01c=0x8000) (Reg 0xa01d=0x0002) (Reg 0xa01e=0x0000) (Reg 0xa01f=0x0000) 
(Reg 0xa020=0x0000) (Reg 0xa021=0x0000) (Reg 0xa022=0x0000) (Reg 0xa023=0x0000) 
(Reg 0xa024=0x0000) (Reg 0xa025=0x0000) (Reg 0xa026=0x0000) (Reg 0xa027=0x0000) 
(Reg 0xa028=0x006a) (Reg 0xa029=0xa7f8) (Reg 0xa02a=0x0062) (Reg 0xa02b=0x0ff0) 
(Reg 0xa02c=0x00f0) (Reg 0xa02d=0x0000) (Reg 0xa02e=0x0000) (Reg 0xa02f=0x1bde) 
(Reg 0xa030=0x8110) (Reg 0xa031=0x0000) (Reg 0xa032=0x65bb) (Reg 0xa033=0x30b2) 
(Reg 0xa034=0x0000) (Reg 0xa035=0x0000) (Reg 0xa036=0x0000) (Reg 0xa037=0x0000) 
(Reg 0xa038=0x0000) (Reg 0xa039=0x0000) (Reg 0xa03a=0x0000) 

NETWORK LANE VR 1 Registers:

(Reg 0xa200=0x0000) (Reg 0xa201=0x0000) (Reg 0xa202=0x0000) (Reg 0xa203=0x0000) 
(Reg 0xa204=0x0000) (Reg 0xa205=0x0000) (Reg 0xa206=0x0000) (Reg 0xa207=0x0000) 
(Reg 0xa208=0x0000) (Reg 0xa209=0x0000) (Reg 0xa20a=0x0000) (Reg 0xa20b=0x0000) 
(Reg 0xa20c=0x0000) (Reg 0xa20d=0x0000) (Reg 0xa20e=0x0000) (Reg 0xa20f=0x0000) 
(Reg 0xa210=0x0000) (Reg 0xa211=0x0000) (Reg 0xa212=0x0000) (Reg 0xa213=0x0000) 
(Reg 0xa214=0x0000) (Reg 0xa215=0x0000) (Reg 0xa216=0x0000) (Reg 0xa217=0x0000) 
(Reg 0xa218=0x0000) (Reg 0xa219=0x0000) (Reg 0xa21a=0x0000) (Reg 0xa21b=0x0000) 
(Reg 0xa21c=0x0000) (Reg 0xa21d=0x0000) (Reg 0xa21e=0x0000) (Reg 0xa21f=0x0000) 
(Reg 0xa220=0x0000) (Reg 0xa221=0x0000) (Reg 0xa222=0x0000) (Reg 0xa223=0x0000) 
(Reg 0xa224=0x0000) (Reg 0xa225=0x0000) (Reg 0xa226=0x0000) (Reg 0xa227=0x0000) 
(Reg 0xa228=0x0000) (Reg 0xa229=0x0000) (Reg 0xa22a=0x0000) (Reg 0xa22b=0x0000) 
(Reg 0xa22c=0x0000) (Reg 0xa22d=0x0000) (Reg 0xa22e=0x0000) (Reg 0xa22f=0x0000) 
(Reg 0xa230=0x0000) (Reg 0xa231=0x0000) (Reg 0xa232=0x0000) (Reg 0xa233=0x0000) 
(Reg 0xa234=0x0000) (Reg 0xa235=0x0000) (Reg 0xa236=0x0000) (Reg 0xa237=0x0000) 
(Reg 0xa238=0x0000) (Reg 0xa239=0x0000) (Reg 0xa23a=0x0000) (Reg 0xa23b=0x0000) 
(Reg 0xa23c=0x0000) (Reg 0xa23d=0x0000) (Reg 0xa23e=0x0000) (Reg 0xa23f=0x0000) 
(Reg 0xa240=0xffff) (Reg 0xa241=0xffff) (Reg 0xa242=0xffff) (Reg 0xa243=0xffff) 
(Reg 0xa244=0xffff) (Reg 0xa245=0xffff) (Reg 0xa246=0xffff) (Reg 0xa247=0xffff) 
(Reg 0xa248=0xffff) (Reg 0xa249=0xffff) (Reg 0xa24a=0x0000) (Reg 0xa24b=0x0000) 
(Reg 0xa24c=0x0000) (Reg 0xa24d=0x0000) (Reg 0xa24e=0x0000) (Reg 0xa24f=0x0000) 
(Reg 0xa250=0xe0dc) (Reg 0xa251=0xe0dc) (Reg 0xa252=0xe0dc) (Reg 0xa253=0xe0dc) 
(Reg 0xa254=0xe0dc) (Reg 0xa255=0xe0dc) (Reg 0xa256=0xe0dc) (Reg 0xa257=0xe0dc) 
(Reg 0xa258=0xe0dc) (Reg 0xa259=0xe0dc) (Reg 0xa25a=0x0000) (Reg 0xa25b=0x0000) 
(Reg 0xa25c=0x0000) (Reg 0xa25d=0x0000) (Reg 0xa25e=0x0000) (Reg 0xa25f=0x0000) 
(Reg 0xa260=0x0000) 

NETWORK LANE VR 2 Registers:

(Reg 0xa280=0x0000) (Reg 0xa281=0x0000) (Reg 0xa282=0x0000) (Reg 0xa283=0x0000) 
(Reg 0xa284=0x0000) (Reg 0xa285=0x0000) (Reg 0xa286=0x0000) (Reg 0xa287=0x0000) 
(Reg 0xa288=0x0000) (Reg 0xa289=0x0000) (Reg 0xa28a=0x0000) (Reg 0xa28b=0x0000) 
(Reg 0xa28c=0x0000) (Reg 0xa28d=0x0000) (Reg 0xa28e=0x0000) (Reg 0xa28f=0x0000) 
(Reg 0xa290=0x0000) (Reg 0xa291=0x0000) (Reg 0xa292=0x0000) (Reg 0xa293=0x0000) 
(Reg 0xa294=0x0000) (Reg 0xa295=0x0000) (Reg 0xa296=0x0000) (Reg 0xa297=0x0000) 
(Reg 0xa298=0x0000) (Reg 0xa299=0x0000) (Reg 0xa29a=0x0000) (Reg 0xa29b=0x0000) 
(Reg 0xa29c=0x0000) (Reg 0xa29d=0x0000) (Reg 0xa29e=0x0000) (Reg 0xa29f=0x0000) 
(Reg 0xa2a0=0x0bc3) (Reg 0xa2a1=0x0c10) (Reg 0xa2a2=0x0bb5) (Reg 0xa2a3=0x0bdc) 
(Reg 0xa2a4=0x0b8f) (Reg 0xa2a5=0x0bd9) (Reg 0xa2a6=0x0bf8) (Reg 0xa2a7=0x0b76) 
(Reg 0xa2a8=0x0bd9) (Reg 0xa2a9=0x0b0d) (Reg 0xa2aa=0x0000) (Reg 0xa2ab=0x0000) 
(Reg 0xa2ac=0x0000) (Reg 0xa2ad=0x0000) (Reg 0xa2ae=0x0000) (Reg 0xa2af=0x0000) 
(Reg 0xa2b0=0x1543) (Reg 0xa2b1=0x165c) (Reg 0xa2b2=0x1494) (Reg 0xa2b3=0x15fb) 
(Reg 0xa2b4=0x15c2) (Reg 0xa2b5=0x17c5) (Reg 0xa2b6=0x16d2) (Reg 0xa2b7=0x1728) 
(Reg 0xa2b8=0x16cf) (Reg 0xa2b9=0x17ce) (Reg 0xa2ba=0x0000) (Reg 0xa2bb=0x0000) 
(Reg 0xa2bc=0x0000) (Reg 0xa2bd=0x0000) (Reg 0xa2be=0x0000) (Reg 0xa2bf=0x0000) 
(Reg 0xa2c0=0x22de) (Reg 0xa2c1=0x22de) (Reg 0xa2c2=0x22de) (Reg 0xa2c3=0x22de) 
(Reg 0xa2c4=0x22de) (Reg 0xa2c5=0x22de) (Reg 0xa2c6=0x22de) (Reg 0xa2c7=0x22de) 
(Reg 0xa2c8=0x22de) (Reg 0xa2c9=0x22de) (Reg 0xa2ca=0x0000) (Reg 0xa2cb=0x0000) 
(Reg 0xa2cc=0x0000) (Reg 0xa2cd=0x0000) (Reg 0xa2ce=0x0000) (Reg 0xa2cf=0x0000) 
(Reg 0xa2d0=0x1615) (Reg 0xa2d1=0x1698) (Reg 0xa2d2=0x175d) (Reg 0xa2d3=0x1565) 
(Reg 0xa2d4=0x11b1) (Reg 0xa2d5=0x13e9) (Reg 0xa2d6=0x138e) (Reg 0xa2d7=0x1228) 
(Reg 0xa2d8=0x15c1) (Reg 0xa2d9=0x140c) (Reg 0xa2da=0x0000) (Reg 0xa2db=0x0000) 
(Reg 0xa2dc=0x0000) (Reg 0xa2dd=0x0000) (Reg 0xa2de=0x0000) (Reg 0xa2df=0x0000) 
(Reg 0xa2e0=0x0000) 

HOST LANE VR 1 Registers:

(Reg 0xa400=0x0000) (Reg 0xa401=0x0000) (Reg 0xa402=0x0000) (Reg 0xa403=0x0000) 
(Reg 0xa404=0x0000) (Reg 0xa405=0x0000) (Reg 0xa406=0x0000) (Reg 0xa407=0x0000) 
(Reg 0xa408=0x0000) (Reg 0xa409=0x0000) (Reg 0xa40a=0x0000) (Reg 0xa40b=0x0000) 
(Reg 0xa40c=0x0000) (Reg 0xa40d=0x0000) (Reg 0xa40e=0x0000) (Reg 0xa40f=0x0000) 
(Reg 0xa410=0x0000) (Reg 0xa411=0x0000) (Reg 0xa412=0x0000) (Reg 0xa413=0x0000) 
(Reg 0xa414=0x0000) (Reg 0xa415=0x0000) (Reg 0xa416=0x0000) (Reg 0xa417=0x0000) 
(Reg 0xa418=0x0000) (Reg 0xa419=0x0000) (Reg 0xa41a=0x0000) (Reg 0xa41b=0x0000) 
(Reg 0xa41c=0x0000) (Reg 0xa41d=0x0000) (Reg 0xa41e=0x0000) (Reg 0xa41f=0x0000) 
(Reg 0xa420=0x0001) (Reg 0xa421=0x0001) (Reg 0xa422=0x0001) (Reg 0xa423=0x0001) 
(Reg 0xa424=0x0001) (Reg 0xa425=0x0001) (Reg 0xa426=0x0001) (Reg 0xa427=0x0001) 
(Reg 0xa428=0x0001) (Reg 0xa429=0x0001) (Reg 0xa42a=0x0000) (Reg 0xa42b=0x0000) 
(Reg 0xa42c=0x0000) (Reg 0xa42d=0x0000) (Reg 0xa42e=0x0000) (Reg 0xa42f=0x0000) 
(Reg 0xa430=0x0000) (Reg 0xa431=0x0000) (Reg 0xa432=0x0000) (Reg 0xa433=0x0000) 
(Reg 0xa434=0x0000) (Reg 0xa435=0x0000) (Reg 0xa436=0x0000) (Reg 0xa437=0x0000) 
(Reg 0xa438=0x0000) (Reg 0xa439=0x0000) (Reg 0xa43a=0x0000) (Reg 0xa43b=0x0000) 
(Reg 0xa43c=0x0000) (Reg 0xa43d=0x0000) (Reg 0xa43e=0x0000) (Reg 0xa43f=0x0000) 
(Reg 0xa440=0x0007) (Reg 0xa441=0x0007) (Reg 0xa442=0x0007) (Reg 0xa443=0x0007) 
(Reg 0xa444=0x0007) (Reg 0xa445=0x0007) (Reg 0xa446=0x0007) (Reg 0xa447=0x0007) 
(Reg 0xa448=0x0007) (Reg 0xa449=0x0007) (Reg 0xa44a=0x0000) (Reg 0xa44b=0x0000) 
(Reg 0xa44c=0x0000) (Reg 0xa44d=0x0000) (Reg 0xa44e=0x0000) (Reg 0xa44f=0x0000) 
(Reg 0xa450=0x0000) 

Regs Info
OTN Controller 1 common register:

TOP_MPIF Block : 
---------------------------
Addr     Name                            Value
0x00002  GLOBAL_CFG                      0x0051
0x00004  SCRATCH_PAD1                    0x00ef
0x00005  SCRATCH_PAD2                    0x8d00
0x00009  GPIO_CONTROL                    0x0000

SDS_COMMON Block : BANK B
---------------------------
Addr     Name                            Value
0x0241f  RXLOCKD0_INTSTATUS 3            0x0008
0x02445  RXLOCKD1_INTSTATUS 3            0x0000
0x0246b  RXLOCKD2_INTSTATUS 3            0x0008
0x02491  RXLOCKD3_INTSTATUS 3            0x0008
0x024b9  TXLOCKD0_INTSTATUS 3            0x0008
0x0281f  RXLOCKD0_INTSTATUS 4            0x0000
0x02845  RXLOCKD1_INTSTATUS 4            0x0008
0x0286b  RXLOCKD2_INTSTATUS 4            0x0008
0x02891  RXLOCKD3_INTSTATUS 4            0x0000
0x028b9  TXLOCKD0_INTSTATUS 4            0x0008

SDS_COMMON Block : BANK C
---------------------------
Addr     Name                            Value
0x0301f  RXLOCKD0_INTSTATUS 6            0x0049
0x03045  RXLOCKD1_INTSTATUS 6            0x0049
0x0306b  RXLOCKD2_INTSTATUS 6            0x0049
0x03091  RXLOCKD3_INTSTATUS 6            0x0049
0x030b9  TXLOCKD0_INTSTATUS 6            0x0049
0x0341f  RXLOCKD0_INTSTATUS 7            0x0049
0x03445  RXLOCKD1_INTSTATUS 7            0x0049
0x0346b  RXLOCKD2_INTSTATUS 7            0x0049
0x03491  RXLOCKD3_INTSTATUS 7            0x0049
0x034b9  TXLOCKD0_INTSTATUS 7            0x0049

ILKN_CORE Block : 
---------------------------
Addr     Name                            Value
0x19d6b  RX_INTERLAKEN_STATUS0           0x0049
0x19d6c  RX_INTERLAKEN_SYNCED1           0x0049
0x19d6d  RX_INTERLAKEN_SYNCED0           0x0049
0x19d66  RX_OOBFC_RX_LANE_STATUS1        0x0049
0x19d67  RX_OOBFC_RX_LANE_STATUS0        0x0049
0x19d62  TX_INTERLAKEN_STATUS1           0x0049
0x19d63  TX_INTERLAKEN_STATUS0           0x0049

Port/1 register:

SDS_COMMON Block : line
---------------------------
Addr     Name                            Value
0x0181f  RXLOCKD0_INTSTATUS 0            0x0049
0x01845  RXLOCKD1_INTSTATUS 0            0x0049
0x0186b  RXLOCKD2_INTSTATUS 0            0x0049
0x01891  RXLOCKD3_INTSTATUS 0            0x0049
0x018b9  TXLOCKD0_INTSTATUS 0            0x0049

CPAK Registers:
================

NVR 1 Registers:

(Reg 0x8000=0x01) (Reg 0x8001=0x21) (Reg 0x8002=0x09) (Reg 0x8003=0x03) 
(Reg 0x8004=0x00) (Reg 0x8005=0x00) (Reg 0x8006=0x00) (Reg 0x8007=0x00) 
(Reg 0x8008=0x1e) (Reg 0x8009=0xaa) (Reg 0x800a=0x4a) (Reg 0x800b=0x38) 
(Reg 0x800c=0x38) (Reg 0x800d=0x00) (Reg 0x800e=0x0a) (Reg 0x800f=0x00) 
(Reg 0x8010=0x0a) (Reg 0x8011=0x01) (Reg 0x8012=0x83) (Reg 0x8013=0x40) 
(Reg 0x8014=0x86) (Reg 0x8015=0x60) (Reg 0x8016=0x00) (Reg 0x8017=0x00) 
(Reg 0x8018=0x00) (Reg 0x8019=0x04) (Reg 0x801a=0x40) (Reg 0x801b=0x50) 
(Reg 0x801c=0x26) (Reg 0x801d=0x17) (Reg 0x801e=0x14) (Reg 0x801f=0x46) 
(Reg 0x8020=0x00) (Reg 0x8021=0x43) (Reg 0x8022=0x49) (Reg 0x8023=0x53) 
(Reg 0x8024=0x43) (Reg 0x8025=0x4f) (Reg 0x8026=0x20) (Reg 0x8027=0x20) 
(Reg 0x8028=0x20) (Reg 0x8029=0x20) (Reg 0x802a=0x20) (Reg 0x802b=0x20) 
(Reg 0x802c=0x20) (Reg 0x802d=0x20) (Reg 0x802e=0x20) (Reg 0x802f=0x20) 
(Reg 0x8030=0x20) (Reg 0x8031=0x00) (Reg 0x8032=0x00) (Reg 0x8033=0x0c) 
(Reg 0x8034=0x38) (Reg 0x8035=0x30) (Reg 0x8036=0x30) (Reg 0x8037=0x2d) 
(Reg 0x8038=0x34) (Reg 0x8039=0x31) (Reg 0x803a=0x34) (Reg 0x803b=0x39) 
(Reg 0x803c=0x35) (Reg 0x803d=0x2d) (Reg 0x803e=0x30) (Reg 0x803f=0x31) 
(Reg 0x8040=0x20) (Reg 0x8041=0x20) (Reg 0x8042=0x20) (Reg 0x8043=0x20) 
(Reg 0x8044=0x46) (Reg 0x8045=0x42) (Reg 0x8046=0x4e) (Reg 0x8047=0x31) 
(Reg 0x8048=0x39) (Reg 0x8049=0x30) (Reg 0x804a=0x39) (Reg 0x804b=0x32) 
(Reg 0x804c=0x31) (Reg 0x804d=0x30) (Reg 0x804e=0x39) (Reg 0x804f=0x20) 
(Reg 0x8050=0x20) (Reg 0x8051=0x20) (Reg 0x8052=0x20) (Reg 0x8053=0x20) 
(Reg 0x8054=0x32) (Reg 0x8055=0x30) (Reg 0x8056=0x31) (Reg 0x8057=0x35) 
(Reg 0x8058=0x30) (Reg 0x8059=0x33) (Reg 0x805a=0x30) (Reg 0x805b=0x35) 
(Reg 0x805c=0x00) (Reg 0x805d=0x00) (Reg 0x805e=0x57) (Reg 0x805f=0x4f) 
(Reg 0x8060=0x54) (Reg 0x8061=0x52) (Reg 0x8062=0x43) (Reg 0x8063=0x35) 
(Reg 0x8064=0x50) (Reg 0x8065=0x42) (Reg 0x8066=0x41) (Reg 0x8067=0x41) 
(Reg 0x8068=0x6e) (Reg 0x8069=0x5a) (Reg 0x806a=0x00) (Reg 0x806b=0x05) 
(Reg 0x806c=0x02) (Reg 0x806d=0x03) (Reg 0x806e=0x0c) (Reg 0x806f=0x03) 
(Reg 0x8070=0x0f) (Reg 0x8071=0x20) (Reg 0x8072=0x01) (Reg 0x8073=0x01) 
(Reg 0x8074=0x08) (Reg 0x8075=0x00) (Reg 0x8076=0xfe) (Reg 0x8077=0x01) 
(Reg 0x8078=0x00) (Reg 0x8079=0x00) (Reg 0x807a=0x00) (Reg 0x807b=0x02) 
(Reg 0x807c=0x03) (Reg 0x807d=0x00) (Reg 0x807e=0x00) (Reg 0x807f=0xeb) 

NVR 2 Registers:

(Reg 0x8080=0x4b) (Reg 0x8081=0x00) (Reg 0x8082=0x46) (Reg 0x8083=0x00) 
(Reg 0x8084=0x00) (Reg 0x8085=0x00) (Reg 0x8086=0xfb) (Reg 0x8087=0x00) 
(Reg 0x8088=0x8a) (Reg 0x8089=0x00) (Reg 0x808a=0x87) (Reg 0x808b=0x5a) 
(Reg 0x808c=0x7a) (Reg 0x808d=0x76) (Reg 0x808e=0x77) (Reg 0x808f=0xe2) 
(Reg 0x8090=0x00) (Reg 0x8091=0x00) (Reg 0x8092=0x00) (Reg 0x8093=0x00) 
(Reg 0x8094=0x00) (Reg 0x8095=0x00) (Reg 0x8096=0x00) (Reg 0x8097=0x00) 
(Reg 0x8098=0x00) (Reg 0x8099=0x00) (Reg 0x809a=0x00) (Reg 0x809b=0x00) 
(Reg 0x809c=0x00) (Reg 0x809d=0x00) (Reg 0x809e=0x00) (Reg 0x809f=0x00) 
(Reg 0x80a0=0x00) (Reg 0x80a1=0x00) (Reg 0x80a2=0x00) (Reg 0x80a3=0x00) 
(Reg 0x80a4=0x00) (Reg 0x80a5=0x00) (Reg 0x80a6=0x00) (Reg 0x80a7=0x00) 
(Reg 0x80a8=0x13) (Reg 0x80a9=0x88) (Reg 0x80aa=0x11) (Reg 0x80ab=0x94) 
(Reg 0x80ac=0x05) (Reg 0x80ad=0xdc) (Reg 0x80ae=0x03) (Reg 0x80af=0xe8) 
(Reg 0x80b0=0x45) (Reg 0x80b1=0x76) (Reg 0x80b2=0x22) (Reg 0x80b3=0xd0) 
(Reg 0x80b4=0x06) (Reg 0x80b5=0xc9) (Reg 0x80b6=0x03) (Reg 0x80b7=0x66) 
(Reg 0x80b8=0x5a) (Reg 0x80b9=0x00) (Reg 0x80ba=0x55) (Reg 0x80bb=0x00) 
(Reg 0x80bc=0x00) (Reg 0x80bd=0x00) (Reg 0x80be=0xfb) (Reg 0x80bf=0x00) 
(Reg 0x80c0=0x88) (Reg 0x80c1=0x71) (Reg 0x80c2=0x43) (Reg 0x80c3=0xe2) 
(Reg 0x80c4=0x04) (Reg 0x80c5=0x62) (Reg 0x80c6=0x02) (Reg 0x80c7=0x32) 
(Reg 0x80c8=0x00) (Reg 0x80c9=0x00) (Reg 0x80ca=0x00) (Reg 0x80cb=0x00) 
(Reg 0x80cc=0x00) (Reg 0x80cd=0x00) (Reg 0x80ce=0x00) (Reg 0x80cf=0x00) 
(Reg 0x80d0=0x00) (Reg 0x80d1=0x00) (Reg 0x80d2=0x00) (Reg 0x80d3=0x00) 
(Reg 0x80d4=0x00) (Reg 0x80d5=0x00) (Reg 0x80d6=0x00) (Reg 0x80d7=0x00) 
(Reg 0x80d8=0x00) (Reg 0x80d9=0x00) (Reg 0x80da=0x00) (Reg 0x80db=0x00) 
(Reg 0x80dc=0x00) (Reg 0x80dd=0x00) (Reg 0x80de=0x00) (Reg 0x80df=0x00) 
(Reg 0x80e0=0x00) (Reg 0x80e1=0x00) (Reg 0x80e2=0x00) (Reg 0x80e3=0x00) 
(Reg 0x80e4=0x00) (Reg 0x80e5=0x00) (Reg 0x80e6=0x00) (Reg 0x80e7=0x00) 
(Reg 0x80e8=0x00) (Reg 0x80e9=0x00) (Reg 0x80ea=0x00) (Reg 0x80eb=0x00) 
(Reg 0x80ec=0x00) (Reg 0x80ed=0x00) (Reg 0x80ee=0x00) (Reg 0x80ef=0x00) 
(Reg 0x80f0=0x00) (Reg 0x80f1=0x00) (Reg 0x80f2=0x00) (Reg 0x80f3=0x00) 
(Reg 0x80f4=0x00) (Reg 0x80f5=0x00) (Reg 0x80f6=0x00) (Reg 0x80f7=0x00) 
(Reg 0x80f8=0x00) (Reg 0x80f9=0x00) (Reg 0x80fa=0x00) (Reg 0x80fb=0x00) 
(Reg 0x80fc=0x00) (Reg 0x80fd=0x00) (Reg 0x80fe=0x00) (Reg 0x80ff=0x93) 

NVR 3 Registers:

(Reg 0x8100=0x00) (Reg 0x8101=0x00) (Reg 0x8102=0x00) (Reg 0x8103=0x00) 
(Reg 0x8104=0x00) (Reg 0x8105=0x00) (Reg 0x8106=0x00) (Reg 0x8107=0x00) 
(Reg 0x8108=0x00) (Reg 0x8109=0x00) (Reg 0x810a=0x00) (Reg 0x810b=0x00) 
(Reg 0x810c=0x00) (Reg 0x810d=0x00) (Reg 0x810e=0x00) (Reg 0x810f=0x00) 
(Reg 0x8110=0x00) (Reg 0x8111=0x00) (Reg 0x8112=0x00) (Reg 0x8113=0x00) 
(Reg 0x8114=0x00) (Reg 0x8115=0x00) (Reg 0x8116=0x00) (Reg 0x8117=0x00) 
(Reg 0x8118=0x00) (Reg 0x8119=0x00) (Reg 0x811a=0x00) (Reg 0x811b=0x00) 
(Reg 0x811c=0x00) (Reg 0x811d=0x00) (Reg 0x811e=0x00) (Reg 0x811f=0x00) 
(Reg 0x8120=0x00) (Reg 0x8121=0x00) (Reg 0x8122=0x00) (Reg 0x8123=0x00) 
(Reg 0x8124=0x00) (Reg 0x8125=0x00) (Reg 0x8126=0x00) (Reg 0x8127=0x00) 
(Reg 0x8128=0x00) (Reg 0x8129=0x00) (Reg 0x812a=0x00) (Reg 0x812b=0x00) 
(Reg 0x812c=0x00) (Reg 0x812d=0x00) (Reg 0x812e=0x00) (Reg 0x812f=0x00) 
(Reg 0x8130=0x00) (Reg 0x8131=0x00) (Reg 0x8132=0x00) (Reg 0x8133=0x00) 
(Reg 0x8134=0x00) (Reg 0x8135=0x00) (Reg 0x8136=0x00) (Reg 0x8137=0x00) 
(Reg 0x8138=0x00) (Reg 0x8139=0x00) (Reg 0x813a=0x00) (Reg 0x813b=0x00) 
(Reg 0x813c=0x00) (Reg 0x813d=0x00) (Reg 0x813e=0x00) (Reg 0x813f=0x00) 
(Reg 0x8140=0x00) (Reg 0x8141=0x00) (Reg 0x8142=0x00) (Reg 0x8143=0x00) 
(Reg 0x8144=0x00) (Reg 0x8145=0x00) (Reg 0x8146=0x00) (Reg 0x8147=0x00) 
(Reg 0x8148=0x00) (Reg 0x8149=0x00) (Reg 0x814a=0x00) (Reg 0x814b=0x00) 
(Reg 0x814c=0x00) (Reg 0x814d=0x00) (Reg 0x814e=0x00) (Reg 0x814f=0x00) 
(Reg 0x8150=0x00) (Reg 0x8151=0x00) (Reg 0x8152=0x00) (Reg 0x8153=0x00) 
(Reg 0x8154=0x00) (Reg 0x8155=0x00) (Reg 0x8156=0x00) (Reg 0x8157=0x00) 
(Reg 0x8158=0x00) (Reg 0x8159=0x00) (Reg 0x815a=0x00) (Reg 0x815b=0x00) 
(Reg 0x815c=0x00) (Reg 0x815d=0x00) (Reg 0x815e=0x00) (Reg 0x815f=0x00) 
(Reg 0x8160=0x00) (Reg 0x8161=0x00) (Reg 0x8162=0x00) (Reg 0x8163=0x00) 
(Reg 0x8164=0x00) (Reg 0x8165=0x00) (Reg 0x8166=0x00) (Reg 0x8167=0x00) 
(Reg 0x8168=0x00) (Reg 0x8169=0x00) (Reg 0x816a=0x00) (Reg 0x816b=0x00) 
(Reg 0x816c=0x00) (Reg 0x816d=0x00) (Reg 0x816e=0x00) (Reg 0x816f=0x00) 
(Reg 0x8170=0x00) (Reg 0x8171=0x00) (Reg 0x8172=0x00) (Reg 0x8173=0x00) 
(Reg 0x8174=0x00) (Reg 0x8175=0x00) (Reg 0x8176=0x00) (Reg 0x8177=0x00) 
(Reg 0x8178=0x00) (Reg 0x8179=0x00) (Reg 0x817a=0x00) (Reg 0x817b=0x00) 
(Reg 0x817c=0x00) (Reg 0x817d=0x00) (Reg 0x817e=0x00) (Reg 0x817f=0x00) 

NVR 4 Registers:

(Reg 0x8180=0x00) 

VR 1 Registers:

(Reg 0xa000=0x0000) (Reg 0xa001=0x1234) (Reg 0xa002=0x0000) (Reg 0xa003=0x0000) 
(Reg 0xa004=0x0000) (Reg 0xa005=0x0000) (Reg 0xa006=0x0000) (Reg 0xa007=0x0000) 
(Reg 0xa008=0x0000) (Reg 0xa009=0x0000) (Reg 0xa00a=0x0000) (Reg 0xa00b=0x0000) 
(Reg 0xa00c=0x0000) (Reg 0xa00d=0x0000) (Reg 0xa00e=0x0000) (Reg 0xa00f=0x0000) 
(Reg 0xa010=0x0000) (Reg 0xa011=0x0200) (Reg 0xa012=0x0200) (Reg 0xa013=0x0000) 
(Reg 0xa014=0x0000) (Reg 0xa015=0x0000) (Reg 0xa016=0x0020) (Reg 0xa017=0x0000) 
(Reg 0xa018=0xb180) (Reg 0xa019=0x03ff) (Reg 0xa01a=0x01ff) (Reg 0xa01b=0x0000) 
(Reg 0xa01c=0x8000) (Reg 0xa01d=0x0002) (Reg 0xa01e=0x0000) (Reg 0xa01f=0x0000) 
(Reg 0xa020=0x0000) (Reg 0xa021=0x8000) (Reg 0xa022=0x003f) (Reg 0xa023=0x0080) 
(Reg 0xa024=0x0000) (Reg 0xa025=0x0000) (Reg 0xa026=0x0000) (Reg 0xa027=0x0000) 
(Reg 0xa028=0x006a) (Reg 0xa029=0xa7f8) (Reg 0xa02a=0x0062) (Reg 0xa02b=0x0ff0) 
(Reg 0xa02c=0x00f0) (Reg 0xa02d=0x0000) (Reg 0xa02e=0x0000) (Reg 0xa02f=0x1b6e) 
(Reg 0xa030=0x800f) (Reg 0xa031=0x0000) (Reg 0xa032=0x6511) (Reg 0xa033=0x301f) 
(Reg 0xa034=0x0000) (Reg 0xa035=0x0000) (Reg 0xa036=0x0000) (Reg 0xa037=0x0000) 
(Reg 0xa038=0x0000) (Reg 0xa039=0x0000) (Reg 0xa03a=0x0000) 

NETWORK LANE VR 1 Registers:

(Reg 0xa200=0x0000) (Reg 0xa201=0x0000) (Reg 0xa202=0x0000) (Reg 0xa203=0x0000) 
(Reg 0xa204=0x0000) (Reg 0xa205=0x0000) (Reg 0xa206=0x0000) (Reg 0xa207=0x0000) 
(Reg 0xa208=0x0000) (Reg 0xa209=0x0000) (Reg 0xa20a=0x0000) (Reg 0xa20b=0x0000) 
(Reg 0xa20c=0x0000) (Reg 0xa20d=0x0000) (Reg 0xa20e=0x0000) (Reg 0xa20f=0x0000) 
(Reg 0xa210=0x0000) (Reg 0xa211=0x0000) (Reg 0xa212=0x0000) (Reg 0xa213=0x0000) 
(Reg 0xa214=0x0000) (Reg 0xa215=0x0000) (Reg 0xa216=0x0000) (Reg 0xa217=0x0000) 
(Reg 0xa218=0x0000) (Reg 0xa219=0x0000) (Reg 0xa21a=0x0000) (Reg 0xa21b=0x0000) 
(Reg 0xa21c=0x0000) (Reg 0xa21d=0x0000) (Reg 0xa21e=0x0000) (Reg 0xa21f=0x0000) 
(Reg 0xa220=0x3300) (Reg 0xa221=0x3300) (Reg 0xa222=0x3300) (Reg 0xa223=0x3300) 
(Reg 0xa224=0x3300) (Reg 0xa225=0x3300) (Reg 0xa226=0x3300) (Reg 0xa227=0x3300) 
(Reg 0xa228=0x3300) (Reg 0xa229=0x3300) (Reg 0xa22a=0x0000) (Reg 0xa22b=0x0000) 
(Reg 0xa22c=0x0000) (Reg 0xa22d=0x0000) (Reg 0xa22e=0x0000) (Reg 0xa22f=0x0000) 
(Reg 0xa230=0x0080) (Reg 0xa231=0x0080) (Reg 0xa232=0x0080) (Reg 0xa233=0x0080) 
(Reg 0xa234=0x0080) (Reg 0xa235=0x0080) (Reg 0xa236=0x0080) (Reg 0xa237=0x0080) 
(Reg 0xa238=0x0080) (Reg 0xa239=0x0000) (Reg 0xa23a=0x0000) (Reg 0xa23b=0x0000) 
(Reg 0xa23c=0x0000) (Reg 0xa23d=0x0000) (Reg 0xa23e=0x0000) (Reg 0xa23f=0x0000) 
(Reg 0xa240=0xffff) (Reg 0xa241=0xffff) (Reg 0xa242=0xffff) (Reg 0xa243=0xffff) 
(Reg 0xa244=0xffff) (Reg 0xa245=0xffff) (Reg 0xa246=0xffff) (Reg 0xa247=0xffff) 
(Reg 0xa248=0xffff) (Reg 0xa249=0xffff) (Reg 0xa24a=0x0000) (Reg 0xa24b=0x0000) 
(Reg 0xa24c=0x0000) (Reg 0xa24d=0x0000) (Reg 0xa24e=0x0000) (Reg 0xa24f=0x0000) 
(Reg 0xa250=0xe0dc) (Reg 0xa251=0xe0dc) (Reg 0xa252=0xe0dc) (Reg 0xa253=0xe0dc) 
(Reg 0xa254=0xe0dc) (Reg 0xa255=0xe0dc) (Reg 0xa256=0xe0dc) (Reg 0xa257=0xe0dc) 
(Reg 0xa258=0xe0dc) (Reg 0xa259=0xe0dc) (Reg 0xa25a=0x0000) (Reg 0xa25b=0x0000) 
(Reg 0xa25c=0x0000) (Reg 0xa25d=0x0000) (Reg 0xa25e=0x0000) (Reg 0xa25f=0x0000) 
(Reg 0xa260=0x0000) 

NETWORK LANE VR 2 Registers:

(Reg 0xa280=0x0000) (Reg 0xa281=0x0000) (Reg 0xa282=0x0000) (Reg 0xa283=0x0000) 
(Reg 0xa284=0x0000) (Reg 0xa285=0x0000) (Reg 0xa286=0x0000) (Reg 0xa287=0x0000) 
(Reg 0xa288=0x0000) (Reg 0xa289=0x0000) (Reg 0xa28a=0x0000) (Reg 0xa28b=0x0000) 
(Reg 0xa28c=0x0000) (Reg 0xa28d=0x0000) (Reg 0xa28e=0x0000) (Reg 0xa28f=0x0000) 
(Reg 0xa290=0x0000) (Reg 0xa291=0x0000) (Reg 0xa292=0x0000) (Reg 0xa293=0x0000) 
(Reg 0xa294=0x0000) (Reg 0xa295=0x0000) (Reg 0xa296=0x0000) (Reg 0xa297=0x0000) 
(Reg 0xa298=0x0000) (Reg 0xa299=0x0000) (Reg 0xa29a=0x0000) (Reg 0xa29b=0x0000) 
(Reg 0xa29c=0x0000) (Reg 0xa29d=0x0000) (Reg 0xa29e=0x0000) (Reg 0xa29f=0x0000) 
(Reg 0xa2a0=0x0b75) (Reg 0xa2a1=0x0b6e) (Reg 0xa2a2=0x0ba9) (Reg 0xa2a3=0x0ba7) 
(Reg 0xa2a4=0x0bdd) (Reg 0xa2a5=0x0b37) (Reg 0xa2a6=0x0bdd) (Reg 0xa2a7=0x0b87) 
(Reg 0xa2a8=0x0b90) (Reg 0xa2a9=0x0b62) (Reg 0xa2aa=0x0000) (Reg 0xa2ab=0x0000) 
(Reg 0xa2ac=0x0000) (Reg 0xa2ad=0x0000) (Reg 0xa2ae=0x0000) (Reg 0xa2af=0x0000) 
(Reg 0xa2b0=0x1466) (Reg 0xa2b1=0x1293) (Reg 0xa2b2=0x12f1) (Reg 0xa2b3=0x1244) 
(Reg 0xa2b4=0x12d5) (Reg 0xa2b5=0x134f) (Reg 0xa2b6=0x13de) (Reg 0xa2b7=0x12f5) 
(Reg 0xa2b8=0x13c4) (Reg 0xa2b9=0x12f0) (Reg 0xa2ba=0x0000) (Reg 0xa2bb=0x0000) 
(Reg 0xa2bc=0x0000) (Reg 0xa2bd=0x0000) (Reg 0xa2be=0x0000) (Reg 0xa2bf=0x0000) 
(Reg 0xa2c0=0x226e) (Reg 0xa2c1=0x226e) (Reg 0xa2c2=0x226e) (Reg 0xa2c3=0x226e) 
(Reg 0xa2c4=0x226e) (Reg 0xa2c5=0x226e) (Reg 0xa2c6=0x226e) (Reg 0xa2c7=0x226e) 
(Reg 0xa2c8=0x226e) (Reg 0xa2c9=0x226e) (Reg 0xa2ca=0x0000) (Reg 0xa2cb=0x0000) 
(Reg 0xa2cc=0x0000) (Reg 0xa2cd=0x0000) (Reg 0xa2ce=0x0000) (Reg 0xa2cf=0x0000) 
(Reg 0xa2d0=0x1589) (Reg 0xa2d1=0x1782) (Reg 0xa2d2=0x182f) (Reg 0xa2d3=0x155a) 
(Reg 0xa2d4=0x1776) (Reg 0xa2d5=0x15c9) (Reg 0xa2d6=0x15fe) (Reg 0xa2d7=0x1714) 
(Reg 0xa2d8=0x1873) (Reg 0xa2d9=0x17e9) (Reg 0xa2da=0x0000) (Reg 0xa2db=0x0000) 
(Reg 0xa2dc=0x0000) (Reg 0xa2dd=0x0000) (Reg 0xa2de=0x0000) (Reg 0xa2df=0x0000) 
(Reg 0xa2e0=0x0000) 

HOST LANE VR 1 Registers:

(Reg 0xa400=0x0000) (Reg 0xa401=0x0000) (Reg 0xa402=0x0000) (Reg 0xa403=0x0000) 
(Reg 0xa404=0x0000) (Reg 0xa405=0x0000) (Reg 0xa406=0x0000) (Reg 0xa407=0x0000) 
(Reg 0xa408=0x0000) (Reg 0xa409=0x0000) (Reg 0xa40a=0x0000) (Reg 0xa40b=0x0000) 
